(0.001639) oc_vcan_012 166#D032000900000000
(0.001722) oc_vcan_012 158#000000000000000A
(0.001756) oc_vcan_012 161#000005500108000D
(0.001803) oc_vcan_012 191#010090A141003000
(0.002148) oc_vcan_012 18E#00005C0000000000
(0.002340) oc_vcan_012 133#0000000098000000
(0.002593) oc_vcan_012 136#000200000000001B
(0.002857) oc_vcan_012 13A#0000000000000019
(0.003105) oc_vcan_012 13F#000000050000001F
(0.003347) oc_vcan_012 164#0000C01AA8000031
(0.003590) oc_vcan_012 17C#0000000010000012
(0.004597) oc_vcan_012 183#0000000E0000101C
(0.005686) oc_vcan_012 39#000C000000000000
(0.005746) oc_vcan_012 143#6B6B00D100000000
(0.007272) oc_vcan_012 95#800007F400000008
(0.010204) oc_vcan_012 166#D032001800000000
(0.011411) oc_vcan_012 158#0000000000000019
(0.011712) oc_vcan_012 161#000005500108001C
(0.011830) oc_vcan_012 191#010090A141000300
(0.012136) oc_vcan_012 164#0000C01AA8000004
(0.012317) oc_vcan_012 133#00000000A7000000
(0.012561) oc_vcan_012 136#000200000000002A
(0.012821) oc_vcan_012 13A#0000000000000028
(0.013033) oc_vcan_012 13F#000000050000002E
(0.013295) oc_vcan_012 17C#0000000010000021
(0.013349) oc_vcan_012 18E#00006B0000000000
(0.013649) oc_vcan_012 1CF#80050000003C0000
(0.013791) oc_vcan_012 1DC#0200003900000000
(0.013933) oc_vcan_012 320#0000300000000000
(0.014162) oc_vcan_012 324#7465000000000E38
(0.014436) oc_vcan_012 183#0000000A0000102F
(0.014743) oc_vcan_012 37C#FD00FD00097F0038
(0.015841) oc_vcan_012 143#6B6B00E000000000
(0.017310) oc_vcan_012 95#800007F400000017
(0.018179) oc_vcan_012 1A4#0000000800000010
(0.018414) oc_vcan_012 1AA#7FFF000000006810
(0.018817) oc_vcan_012 1B0#000F000000015700
(0.018895) oc_vcan_012 1D0#000000000000000A
(0.019598) oc_vcan_012 39#001B000000000000
(0.020126) oc_vcan_012 166#D032002700000000
(0.021413) oc_vcan_012 158#0000000000000028
(0.021975) oc_vcan_012 161#000005500108002B
(0.022055) oc_vcan_012 191#010090A141001200
(0.022221) oc_vcan_012 164#0000C01AA8000013
(0.022398) oc_vcan_012 133#00000000B6000000
(0.022709) oc_vcan_012 136#0002000000000039
(0.022921) oc_vcan_012 13A#0000000000000037
(0.023142) oc_vcan_012 13F#000000050000003D
(0.023380) oc_vcan_012 17C#0000000010000030
(0.023536) oc_vcan_012 18E#00007A0000000000
(0.023823) oc_vcan_012 294#040B0002CF5A000E
(0.024038) oc_vcan_012 21E#03E8374522060100
(0.024817) oc_vcan_012 183#0000000F00001039
(0.025734) oc_vcan_012 143#6B6B00FF00000000
(0.027289) oc_vcan_012 95#800007F400000026
(0.030165) oc_vcan_012 166#D032003600000000
(0.031399) oc_vcan_012 158#0000000000000037
(0.031682) oc_vcan_012 161#000005500108003A
(0.031884) oc_vcan_012 164#0000C01AA8000022
(0.032098) oc_vcan_012 191#010090A141002100
(0.032269) oc_vcan_012 133#0000000089000000
(0.032517) oc_vcan_012 136#000200000000000C
(0.032750) oc_vcan_012 13A#000000000000000A
(0.033003) oc_vcan_012 13F#0000000500000000
(0.033252) oc_vcan_012 17C#0000000010000003
(0.033391) oc_vcan_012 18E#00004D0000000000
(0.033590) oc_vcan_012 1CF#80050000000F0000
(0.033757) oc_vcan_012 1DC#0200000C00000000
(0.034155) oc_vcan_012 183#0000000B00001000
(0.035731) oc_vcan_012 143#6B6B00C200000000
(0.037282) oc_vcan_012 95#800007F400000035
(0.038160) oc_vcan_012 1A4#000000080000002F
(0.038383) oc_vcan_012 1AA#7FFF00000000682F
(0.038679) oc_vcan_012 1B0#000F000000016600
(0.038897) oc_vcan_012 1D0#000000000000000A
(0.040185) oc_vcan_012 166#D032000900000000
(0.041411) oc_vcan_012 158#000000000000000A
(0.041724) oc_vcan_012 161#000005500108000D
(0.041764) oc_vcan_012 191#010090A141003000
(0.042157) oc_vcan_012 164#0000C01AA8000031
(0.042313) oc_vcan_012 133#0000000098000000
(0.042580) oc_vcan_012 136#000200000000001B
(0.042638) oc_vcan_012 39#002A000000000000
(0.042948) oc_vcan_012 13A#0000000000000019
(0.043206) oc_vcan_012 13F#000000050000001F
(0.043447) oc_vcan_012 17C#0000000010000012
(0.043570) oc_vcan_012 18E#00005C0000000000
(0.043826) oc_vcan_012 309#0000000000000084
(0.044693) oc_vcan_012 183#0000000800001012
(0.045737) oc_vcan_012 143#6B6B00D100000000
(0.047293) oc_vcan_012 95#800007F400000008
(0.050232) oc_vcan_012 166#D032001800000000
(0.053881) oc_vcan_012 158#0000000000000019
(0.053958) oc_vcan_012 161#000005500108001C
(0.054011) oc_vcan_012 191#010090A141000300
(0.054078) oc_vcan_012 164#0000C01AA8000004
(0.054124) oc_vcan_012 133#00000000A7000000
(0.054167) oc_vcan_012 136#000200000000002A
(0.054205) oc_vcan_012 13A#0000000000000028
(0.054241) oc_vcan_012 13F#000000050000002E
(0.054276) oc_vcan_012 17C#0000000010000021
(0.054310) oc_vcan_012 18E#00006B0000000000
(0.054361) oc_vcan_012 1CF#80050000001E0000
(0.054405) oc_vcan_012 1DC#0200001B00000000
(0.054461) oc_vcan_012 183#0000000600001023
(0.055687) oc_vcan_012 143#6B6B00E000000000
(0.055727) oc_vcan_012 39#0039000000000000
(0.057258) oc_vcan_012 95#800007F400000017
(0.058196) oc_vcan_012 1A4#000000080000003E
(0.058438) oc_vcan_012 1AA#7FFF00000000673F
(0.058659) oc_vcan_012 1B0#000F000000017500
(0.058915) oc_vcan_012 1D0#000000000000000A
(0.060114) oc_vcan_012 166#D032002700000000
(0.061380) oc_vcan_012 158#0000000000000028
(0.061599) oc_vcan_012 161#000005500108002B
(0.061810) oc_vcan_012 191#010090A141001200
(0.062203) oc_vcan_012 164#0000C01AA8000013
(0.062379) oc_vcan_012 133#00000000B6000000
(0.062673) oc_vcan_012 136#0002000000000039
(0.062882) oc_vcan_012 13A#0000000000000037
(0.063133) oc_vcan_012 13F#000000050000003D
(0.063387) oc_vcan_012 17C#0000000010000030
(0.063554) oc_vcan_012 18E#00007A0000000000
(0.063823) oc_vcan_012 294#040B0002CF5A001D
(0.064027) oc_vcan_012 21E#03E8374522061000
(0.064717) oc_vcan_012 183#0000000400001034
(0.065655) oc_vcan_012 143#6B6B00FF00000000
(0.067273) oc_vcan_012 95#800007F400000026
(0.070132) oc_vcan_012 166#D032003600000000
(0.070556) oc_vcan_012 39#000C000000000000
(0.071390) oc_vcan_012 158#0000000000000037
(0.071643) oc_vcan_012 161#000005500108003A
(0.071824) oc_vcan_012 164#0000C01AA8000022
(0.072058) oc_vcan_012 191#010090A141002100
(0.072241) oc_vcan_012 133#0000000089000000
(0.072515) oc_vcan_012 136#000200000000000C
(0.072756) oc_vcan_012 13A#000000000000000A
(0.073007) oc_vcan_012 13F#0000000500000000
(0.073261) oc_vcan_012 17C#0000000010000003
(0.073387) oc_vcan_012 18E#00004D0000000000
(0.073607) oc_vcan_012 1CF#80050000002D0000
(0.073796) oc_vcan_012 1DC#0200002A00000000
(0.074169) oc_vcan_012 183#0000000A00001001
(0.075680) oc_vcan_012 143#6B6B00C200000000
(0.077271) oc_vcan_012 95#800007F400000035
(0.078137) oc_vcan_012 1A4#0000000800000001
(0.078392) oc_vcan_012 1AA#7FFF000000006702
(0.078609) oc_vcan_012 1B0#000F000000014800
(0.078817) oc_vcan_012 1D0#000000000000000A
(0.080147) oc_vcan_012 166#D032000900000000
(0.081384) oc_vcan_012 158#000000000000000A
(0.081637) oc_vcan_012 161#000005500108000D
(0.081832) oc_vcan_012 191#010090A141003000
(0.082149) oc_vcan_012 164#0000C01AA8000031
(0.082322) oc_vcan_012 133#0000000098000000
(0.082576) oc_vcan_012 136#000200000000001B
(0.082816) oc_vcan_012 13A#0000000000000019
(0.083068) oc_vcan_012 13F#000000050000001F
(0.083315) oc_vcan_012 17C#0000000010000012
(0.083452) oc_vcan_012 18E#00005C0000000000
(0.084148) oc_vcan_012 39#001B000000000000
(0.084695) oc_vcan_012 183#0000000700001013
(0.085657) oc_vcan_012 143#6B6B00D100000000
(0.087270) oc_vcan_012 95#800007F400000008
(0.090115) oc_vcan_012 166#D032001800000000
(0.091379) oc_vcan_012 158#0000000000000019
(0.091603) oc_vcan_012 161#000005500108001C
(0.091832) oc_vcan_012 191#010090A141000300
(0.092065) oc_vcan_012 164#0000C01AA8000004
(0.092239) oc_vcan_012 133#00000000A7000000
(0.092516) oc_vcan_012 136#000200000000002A
(0.092747) oc_vcan_012 13A#0000000000000028
(0.092984) oc_vcan_012 13F#000000050000002E
(0.093257) oc_vcan_012 17C#0000000010000021
(0.093315) oc_vcan_012 18E#00006B0000000000
(0.093624) oc_vcan_012 1CF#80050000003C0000
(0.093794) oc_vcan_012 1DC#0200003900000000
(0.094192) oc_vcan_012 183#0000000500001024
(0.095708) oc_vcan_012 143#6B6B00E000000000
(0.096135) oc_vcan_012 333#0000000000000F00
(0.097272) oc_vcan_012 95#800007F400000017
(0.097553) oc_vcan_012 39#002A000000000000
(0.098124) oc_vcan_012 1A4#0000000800000010
(0.098242) oc_vcan_012 305#8017000000000000
(0.098512) oc_vcan_012 1AA#7FFF000000006810
(0.098748) oc_vcan_012 1B0#000F000000015700
(0.099004) oc_vcan_012 1D0#000000000000000A
(0.100121) oc_vcan_012 166#D032002700000000
(0.101381) oc_vcan_012 158#0000000000000028
(0.101636) oc_vcan_012 161#000005500108002B
(0.101829) oc_vcan_012 191#010090A141001200
(0.102186) oc_vcan_012 18E#00007A0000000000
(0.102361) oc_vcan_012 133#00000000B6000000
(0.102621) oc_vcan_012 136#0002000000000039
(0.102859) oc_vcan_012 13A#0000000000000037
(0.103105) oc_vcan_012 13F#000000050000003D
(0.103369) oc_vcan_012 164#0000C01AA8000013
(0.103604) oc_vcan_012 17C#0000000010000030
(0.103808) oc_vcan_012 294#040B0002CF5A002C
(0.104097) oc_vcan_012 21E#03E8374522062F00
(0.104781) oc_vcan_012 183#0000000B0000103D
(0.105655) oc_vcan_012 143#6B6B00FF00000000
(0.107265) oc_vcan_012 95#800007F400000026
(0.109656) oc_vcan_012 39#0039000000000000
(0.110109) oc_vcan_012 166#D032003600000000
(0.111366) oc_vcan_012 158#0000000000000037
(0.111599) oc_vcan_012 161#000005500108003A
(0.111807) oc_vcan_012 191#010010A141002900
(0.112138) oc_vcan_012 164#0000C01AA8000022
(0.112318) oc_vcan_012 133#0000000089000000
(0.112603) oc_vcan_012 136#000200000000000C
(0.112819) oc_vcan_012 13A#000000000000000A
(0.113071) oc_vcan_012 13F#0000000500000000
(0.113337) oc_vcan_012 17C#0000000010000003
(0.113461) oc_vcan_012 18E#00004D0000000000
(0.113684) oc_vcan_012 1CF#80050000000F0000
(0.113844) oc_vcan_012 1DC#0200000C00000000
(0.114006) oc_vcan_012 320#0000030000000000
(0.114269) oc_vcan_012 183#0000000800001003
(0.114514) oc_vcan_012 324#7465000000000E0B
(0.114742) oc_vcan_012 37C#FD00FD00097F000B
(0.115799) oc_vcan_012 143#6B6B00C200000000
(0.117261) oc_vcan_012 95#800007F400000035
(0.118149) oc_vcan_012 1A4#000000080000002F
(0.118387) oc_vcan_012 1AA#7FFF00000000682F
(0.118606) oc_vcan_012 1B0#000F000000016600
(0.118807) oc_vcan_012 1D0#000000000000000A
(0.120128) oc_vcan_012 166#D032000900000000
(0.121377) oc_vcan_012 158#000000000000000A
(0.121600) oc_vcan_012 161#000005500108000D
(0.121809) oc_vcan_012 191#010010A141003800
(0.122126) oc_vcan_012 18E#00005C0000000000
(0.122320) oc_vcan_012 133#0000000098000000
(0.122597) oc_vcan_012 136#000200000000001B
(0.122839) oc_vcan_012 13A#0000000000000019
(0.123090) oc_vcan_012 13F#000000050000001F
(0.123311) oc_vcan_012 164#0000C01AA8000031
(0.123583) oc_vcan_012 17C#0000000010000012
(0.124640) oc_vcan_012 183#0000000600001014
(0.124688) oc_vcan_012 39#000C000000000000
(0.125647) oc_vcan_012 143#6B6B00D100000000
(0.127276) oc_vcan_012 95#800007F400000008
(0.130116) oc_vcan_012 166#D032001800000000
(0.131381) oc_vcan_012 158#0000000000000019
(0.131633) oc_vcan_012 161#000005500108001C
(0.131814) oc_vcan_012 191#010010A141000B00
(0.132071) oc_vcan_012 164#0000C01AA8000004
(0.132274) oc_vcan_012 133#00000000A7000000
(0.132522) oc_vcan_012 136#000200000000002A
(0.132791) oc_vcan_012 13A#0000000000000028
(0.133022) oc_vcan_012 13F#000000050000002E
(0.133265) oc_vcan_012 17C#0000000010000021
(0.133398) oc_vcan_012 18E#00006B0000000000
(0.133599) oc_vcan_012 1CF#80050000001E0000
(0.133712) oc_vcan_012 1DC#0200001B00000000
(0.134205) oc_vcan_012 183#0000000400001025
(0.135667) oc_vcan_012 143#6B6B00E000000000
(0.137278) oc_vcan_012 95#800007F400000017
(0.138206) oc_vcan_012 1A4#000000080000003E
(0.138243) oc_vcan_012 39#001B000000000000
(0.138559) oc_vcan_012 1AA#7FFF00000000673F
(0.138809) oc_vcan_012 1B0#000F000000017500
(0.139081) oc_vcan_012 1D0#000000000000000A
(0.140137) oc_vcan_012 166#D032002700000000
(0.141388) oc_vcan_012 158#0000000000000028
(0.141643) oc_vcan_012 161#000005500108002B
(0.141829) oc_vcan_012 191#010010A141001A00
(0.142181) oc_vcan_012 164#0000C01AA8000013
(0.142373) oc_vcan_012 133#00000000B6000000
(0.142633) oc_vcan_012 136#0002000000000039
(0.142841) oc_vcan_012 13A#0000000000000037
(0.143114) oc_vcan_012 13F#000000050000003D
(0.143356) oc_vcan_012 17C#0000000010000030
(0.143495) oc_vcan_012 18E#00007A0000000000
(0.143748) oc_vcan_012 294#040B0002CF5A003B
(0.144000) oc_vcan_012 21E#03E8374522063E00
(0.144279) oc_vcan_012 309#0000000000000093
(0.144748) oc_vcan_012 183#0000000300001035
(0.145653) oc_vcan_012 143#6B6B00FF00000000
(0.147291) oc_vcan_012 95#800007F400000026
(0.150114) oc_vcan_012 166#D032003600000000
(0.151415) oc_vcan_012 158#0000000000000037
(0.151736) oc_vcan_012 161#000005500108003A
(0.151818) oc_vcan_012 39#002A000000000000
(0.151988) oc_vcan_012 191#010010A141002900
(0.152233) oc_vcan_012 164#0000C01AA8000022
(0.152432) oc_vcan_012 133#0000000089000000
(0.152695) oc_vcan_012 136#000200000000000C
(0.152917) oc_vcan_012 13A#000000000000000A
(0.153142) oc_vcan_012 13F#0000000500000000
(0.153396) oc_vcan_012 17C#0000000010000003
(0.153534) oc_vcan_012 18E#00004D0000000000
(0.153747) oc_vcan_012 1CF#80050000002D0000
(0.153920) oc_vcan_012 1DC#0200002A00000000
(0.154232) oc_vcan_012 183#0000000A00001001
(0.155721) oc_vcan_012 143#6B6B00C200000000
(0.157320) oc_vcan_012 95#800007F400000035
(0.158163) oc_vcan_012 1A4#0000000800000001
(0.158401) oc_vcan_012 1AA#7FFF000000006702
(0.158640) oc_vcan_012 1B0#000F000000014800
(0.158885) oc_vcan_012 1D0#000000000000000A
(0.160161) oc_vcan_012 166#D032000900000000
(0.161404) oc_vcan_012 158#000000000000000A
(0.161683) oc_vcan_012 161#000005500108000D
(0.161852) oc_vcan_012 191#010010A141003800
(0.162202) oc_vcan_012 18E#00005C0000000000
(0.162365) oc_vcan_012 133#0000000098000000
(0.162676) oc_vcan_012 136#000200000000001B
(0.162863) oc_vcan_012 13A#0000000000000019
(0.163113) oc_vcan_012 13F#000000050000001F
(0.163351) oc_vcan_012 164#0000C01AA8000031
(0.163589) oc_vcan_012 17C#0000000010000012
(0.164814) oc_vcan_012 183#0000000700001013
(0.165699) oc_vcan_012 143#6B6B00D100000000
(0.167310) oc_vcan_012 95#800007F400000008
(0.167568) oc_vcan_012 39#0039000000000000
(0.170216) oc_vcan_012 166#D032001800000000
(0.171409) oc_vcan_012 158#0000000000000019
(0.171698) oc_vcan_012 161#000005500108001C
(0.171858) oc_vcan_012 191#010010A141000B00
(0.172118) oc_vcan_012 164#0000C01AA8000004
(0.172318) oc_vcan_012 133#00000000A7000000
(0.172555) oc_vcan_012 136#000200000000002A
(0.172832) oc_vcan_012 13A#0000000000000028
(0.173031) oc_vcan_012 13F#000000050000002E
(0.173281) oc_vcan_012 17C#0000000010000021
(0.173346) oc_vcan_012 18E#00006B0000000000
(0.173703) oc_vcan_012 1CF#80050000003C0000
(0.173758) oc_vcan_012 1DC#0200003900000000
(0.174232) oc_vcan_012 183#0000000500001024
(0.175721) oc_vcan_012 143#6B6B00E000000000
(0.177327) oc_vcan_012 95#800007F400000017
(0.178163) oc_vcan_012 1A4#0000000800000010
(0.178404) oc_vcan_012 1AA#7FFF000000006810
(0.178695) oc_vcan_012 1B0#000F000000015700
(0.178872) oc_vcan_012 1D0#000000000000000A
(0.180137) oc_vcan_012 166#D032002700000000
(0.180691) oc_vcan_012 39#000C000000000000
(0.181393) oc_vcan_012 158#0000000000000028
(0.181635) oc_vcan_012 161#000005500108002B
(0.181849) oc_vcan_012 191#010010A141001A00
(0.182258) oc_vcan_012 164#0000C01AA8000013
(0.182512) oc_vcan_012 133#00000000B6000000
(0.182679) oc_vcan_012 136#0002000000000039
(0.182923) oc_vcan_012 13A#0000000000000037
(0.183169) oc_vcan_012 13F#000000050000003D
(0.183415) oc_vcan_012 17C#0000000010000030
(0.183544) oc_vcan_012 18E#00007A0000000000
(0.183859) oc_vcan_012 294#040B0002CF5A000E
(0.184051) oc_vcan_012 21E#03E8374522060100
(0.184765) oc_vcan_012 183#0000000300001035
(0.185816) oc_vcan_012 143#6B6B00FF00000000
(0.187392) oc_vcan_012 95#800007F400000026
(0.190153) oc_vcan_012 166#D032003600000000
(0.191401) oc_vcan_012 158#0000000000000037
(0.191645) oc_vcan_012 161#000005500108003A
(0.191838) oc_vcan_012 191#010010A141002900
(0.192155) oc_vcan_012 18E#00004D0000000000
(0.192340) oc_vcan_012 133#0000000089000000
(0.192586) oc_vcan_012 136#000200000000000C
(0.192882) oc_vcan_012 13A#000000000000000A
(0.193101) oc_vcan_012 13F#0000000500000000
(0.193342) oc_vcan_012 164#0000C01AA8000022
(0.193569) oc_vcan_012 17C#0000000010000003
(0.193767) oc_vcan_012 1CF#80050000000F0000
(0.193933) oc_vcan_012 1DC#0200000C00000000
(0.194195) oc_vcan_012 183#0000000200001009
(0.195693) oc_vcan_012 143#6B6B00C200000000
(0.196203) oc_vcan_012 333#0000000000001E00
(0.197330) oc_vcan_012 95#800007F400000035
(0.198163) oc_vcan_012 1A4#000000080000002F
(0.198417) oc_vcan_012 1AA#7FFF00000000682F
(0.198682) oc_vcan_012 1B0#000F000000016600
(0.198830) oc_vcan_012 39#001B000000000000
(0.198996) oc_vcan_012 1D0#000000000000000A
(0.199589) oc_vcan_012 305#8026000000000000
(0.200182) oc_vcan_012 166#D032000900000000
(0.201393) oc_vcan_012 158#000000000000000A
(0.201692) oc_vcan_012 161#000005500108000D
(0.201852) oc_vcan_012 191#010010A141003800
(0.202179) oc_vcan_012 18E#00005C0000000000
(0.202375) oc_vcan_012 133#0000000098000000
(0.202693) oc_vcan_012 136#000200000000001B
(0.202877) oc_vcan_012 13A#0000000000000019
(0.203119) oc_vcan_012 13F#000000050000001F
(0.203357) oc_vcan_012 164#0000C01AA8000031
(0.203595) oc_vcan_012 17C#0000000010000012
(0.204759) oc_vcan_012 183#0000000900001011
(0.205690) oc_vcan_012 143#6B6B00D100000000
(0.207333) oc_vcan_012 95#800007F400000008
(0.210148) oc_vcan_012 166#D032001800000000
(0.211420) oc_vcan_012 158#0000000000000019
(0.211655) oc_vcan_012 161#000005500108001C
(0.211840) oc_vcan_012 191#010010A141000B00
(0.212153) oc_vcan_012 164#0000C01AA8000004
(0.212339) oc_vcan_012 133#00000000A7000000
(0.212591) oc_vcan_012 136#000200000000002A
(0.212897) oc_vcan_012 13A#0000000000000028
(0.213109) oc_vcan_012 13F#000000050000002E
(0.213521) oc_vcan_012 17C#0000000010000021
(0.213575) oc_vcan_012 18E#00006B0000000000
(0.213663) oc_vcan_012 1CF#80050000001E0000
(0.213834) oc_vcan_012 39#002A000000000000
(0.213980) oc_vcan_012 1DC#0200001B00000000
(0.214140) oc_vcan_012 320#0000120000000000
(0.214390) oc_vcan_012 183#0000000600001023
(0.214684) oc_vcan_012 324#7465000000000E1A
(0.214859) oc_vcan_012 37C#FD00FD00097F001A
(0.215082) oc_vcan_012 40C#0236323239533039
(0.215221) oc_vcan_012 454#23EF360000000000
(0.215809) oc_vcan_012 143#6B6B00E000000000
(0.217348) oc_vcan_012 95#800007F400000017
(0.218237) oc_vcan_012 1A4#000000080000003E
(0.218485) oc_vcan_012 1AA#7FFF00000000673F
(0.218707) oc_vcan_012 1B0#000F000000017500
(0.218993) oc_vcan_012 1D0#000000000000000A
(0.220136) oc_vcan_012 166#D032002700000000
(0.221395) oc_vcan_012 158#0000000000000028
(0.221694) oc_vcan_012 161#000005500108002B
(0.221765) oc_vcan_012 191#010010A141001A00
(0.222251) oc_vcan_012 133#00000000B6000000
(0.222514) oc_vcan_012 136#0002000000000039
(0.222737) oc_vcan_012 13A#0000000000000037
(0.222984) oc_vcan_012 13F#000000050000003D
(0.223234) oc_vcan_012 164#0000C01AA8000013
(0.223477) oc_vcan_012 17C#0000000010000030
(0.223532) oc_vcan_012 18E#00007A0000000000
(0.223866) oc_vcan_012 294#040B0002CF5A001D
(0.224129) oc_vcan_012 21E#03E8374522061000
(0.224832) oc_vcan_012 183#0000000400001034
(0.225657) oc_vcan_012 143#6B6B00FF00000000
(0.227348) oc_vcan_012 95#800007F400000026
(0.227594) oc_vcan_012 39#0039000000000000
(0.230154) oc_vcan_012 166#D032003600000000
(0.231405) oc_vcan_012 158#0000000000000037
(0.231702) oc_vcan_012 161#000005500108003A
(0.231840) oc_vcan_012 191#010010A141002900
(0.232087) oc_vcan_012 164#0000C01AA8000022
(0.232253) oc_vcan_012 133#0000000089000000
(0.232520) oc_vcan_012 136#000200000000000C
(0.232745) oc_vcan_012 13A#000000000000000A
(0.232994) oc_vcan_012 13F#0000000500000000
(0.233232) oc_vcan_012 17C#0000000010000003
(0.233392) oc_vcan_012 18E#00004D0000000000
(0.233594) oc_vcan_012 1CF#80050000002D0000
(0.233808) oc_vcan_012 1DC#0200002A00000000
(0.234243) oc_vcan_012 183#0000000A00001001
(0.235735) oc_vcan_012 143#6B6B00C200000000
(0.237367) oc_vcan_012 95#800007F400000035
(0.238156) oc_vcan_012 1A4#0000000800000001
(0.238383) oc_vcan_012 1AA#7FFF000000006702
(0.238600) oc_vcan_012 1B0#000F000000014800
(0.238928) oc_vcan_012 1D0#000000000000000A
(0.240160) oc_vcan_012 166#D032000900000000
(0.241407) oc_vcan_012 158#000000000000000A
(0.241668) oc_vcan_012 161#000005500108000D
(0.241720) oc_vcan_012 39#000C000000000000
(0.241982) oc_vcan_012 191#010010A141003800
(0.242205) oc_vcan_012 164#0000C01AA8000031
(0.242396) oc_vcan_012 133#0000000098000000
(0.242721) oc_vcan_012 136#000200000000001B
(0.242884) oc_vcan_012 13A#0000000000000019
(0.243137) oc_vcan_012 13F#000000050000001F
(0.243387) oc_vcan_012 17C#0000000010000012
(0.243517) oc_vcan_012 18E#00005C0000000000
(0.243840) oc_vcan_012 309#00000000000000A2
(0.244084) oc_vcan_012 428#01040000521C0100
(0.244341) oc_vcan_012 405#000004000000000B
(0.244719) oc_vcan_012 183#0000000700001013
(0.245694) oc_vcan_012 143#6B6B00D100000000
(0.247353) oc_vcan_012 95#800007F400000008
(0.250219) oc_vcan_012 166#D032001800000000
(0.251418) oc_vcan_012 158#0000000000000019
(0.251686) oc_vcan_012 161#000005500108001C
(0.252048) oc_vcan_012 191#010010A141000B00
(0.252115) oc_vcan_012 164#0000C01AA8000004
(0.252283) oc_vcan_012 133#00000000A7000000
(0.252531) oc_vcan_012 136#000200000000002A
(0.252809) oc_vcan_012 13A#0000000000000028
(0.253017) oc_vcan_012 13F#000000050000002E
(0.253266) oc_vcan_012 17C#0000000010000021
(0.253326) oc_vcan_012 18E#00006B0000000000
(0.253662) oc_vcan_012 1CF#80050000003C0000
(0.253719) oc_vcan_012 1DC#0200003900000000
(0.254266) oc_vcan_012 183#0000000500001024
(0.254724) oc_vcan_012 39#001B000000000000
(0.255697) oc_vcan_012 143#6B6B00E000000000
(0.257363) oc_vcan_012 95#800007F400000017
(0.258208) oc_vcan_012 1A4#0000000800000010
(0.258409) oc_vcan_012 1AA#7FFF000000006810
(0.258646) oc_vcan_012 1B0#000F000000015700
(0.258916) oc_vcan_012 1D0#000000000000000A
(0.260145) oc_vcan_012 166#D032002700000000
(0.261402) oc_vcan_012 158#0000000000000028
(0.261753) oc_vcan_012 161#000005500108002B
(0.261849) oc_vcan_012 191#010010A141001A00
(0.262326) oc_vcan_012 164#0000C01AA8000013
(0.262425) oc_vcan_012 133#00000000B6000000
(0.262684) oc_vcan_012 136#0002000000000039
(0.262907) oc_vcan_012 13A#0000000000000037
(0.263146) oc_vcan_012 13F#000000050000003D
(0.263388) oc_vcan_012 17C#0000000010000030
(0.263515) oc_vcan_012 18E#00007A0000000000
(0.263817) oc_vcan_012 294#040B0002CF5A002C
(0.264024) oc_vcan_012 21E#03E8374522062F00
(0.264851) oc_vcan_012 183#0000000B0000103D
(0.265665) oc_vcan_012 143#6B6B00FF00000000
(0.267534) oc_vcan_012 95#800007F400000026
(0.269096) oc_vcan_012 39#002A000000000000
(0.270153) oc_vcan_012 166#D032003600000000
(0.271417) oc_vcan_012 158#0000000000000037
(0.271670) oc_vcan_012 161#000005500108003A
(0.271872) oc_vcan_012 191#010010A141002900
(0.272112) oc_vcan_012 164#0000C01AA8000022
(0.272288) oc_vcan_012 133#0000000089000000
(0.272528) oc_vcan_012 136#000200000000000C
(0.272762) oc_vcan_012 13A#000000000000000A
(0.273014) oc_vcan_012 13F#0000000500000000
(0.273261) oc_vcan_012 17C#0000000010000003
(0.273397) oc_vcan_012 18E#00004D0000000000
(0.273607) oc_vcan_012 1CF#80050000000F0000
(0.273799) oc_vcan_012 1DC#0200000C00000000
(0.274266) oc_vcan_012 183#0000000800001003
(0.275740) oc_vcan_012 143#6B6B00C200000000
(0.277418) oc_vcan_012 95#800007F400000035
(0.278169) oc_vcan_012 1A4#000000080000002F
(0.278569) oc_vcan_012 1AA#7FFF00000000682F
(0.278653) oc_vcan_012 1B0#000F000000016600
(0.279134) oc_vcan_012 1D0#000000000000000A
(0.280155) oc_vcan_012 166#D032000900000000
(0.281416) oc_vcan_012 158#000000000000000A
(0.281673) oc_vcan_012 161#000005500108000D
(0.281832) oc_vcan_012 191#010010A141003800
(0.282268) oc_vcan_012 164#0000C01AA8000031
(0.282327) oc_vcan_012 133#0000000098000000
(0.282662) oc_vcan_012 136#000200000000001B
(0.282716) oc_vcan_012 39#0039000000000000
(0.282973) oc_vcan_012 13A#0000000000000019
(0.283236) oc_vcan_012 13F#000000050000001F
(0.283481) oc_vcan_012 17C#0000000010000012
(0.283539) oc_vcan_012 18E#00005C0000000000
(0.284837) oc_vcan_012 183#0000000D0000101D
(0.285678) oc_vcan_012 143#6B6B00D100000000
(0.287389) oc_vcan_012 95#800007F400000008
(0.290154) oc_vcan_012 166#D032001800000000
(0.291416) oc_vcan_012 158#0000000000000019
(0.291702) oc_vcan_012 161#000005500108001C
(0.291758) oc_vcan_012 191#010010A141000B00
(0.292239) oc_vcan_012 164#0000C01AA8000004
(0.292401) oc_vcan_012 133#00000000A7000000
(0.292707) oc_vcan_012 136#000200000000002A
(0.292918) oc_vcan_012 13A#0000000000000028
(0.293187) oc_vcan_012 13F#000000050000002E
(0.293399) oc_vcan_012 17C#0000000010000021
(0.293524) oc_vcan_012 18E#00006B0000000000
(0.293747) oc_vcan_012 1CF#80050000001E0000
(0.293904) oc_vcan_012 1DC#0200001B00000000
(0.294257) oc_vcan_012 183#0000000900001020
(0.295703) oc_vcan_012 143#6B6B00E000000000
(0.296199) oc_vcan_012 333#0000000000002D00
(0.296607) oc_vcan_012 39#000C000000000000
(0.297384) oc_vcan_012 95#800007F400000017
(0.298237) oc_vcan_012 1A4#000000080000003E
(0.298487) oc_vcan_012 1AA#7FFF00000000673F
(0.298696) oc_vcan_012 1B0#000F000000017500
(0.298952) oc_vcan_012 1D0#000000000000000A
(0.300165) oc_vcan_012 166#D032002700000000
(0.301409) oc_vcan_012 158#0000000000000028
(0.301643) oc_vcan_012 161#000005500108002B
(0.301852) oc_vcan_012 191#010010A141001A00
(0.302058) oc_vcan_012 18E#00007A0000000000
(0.302239) oc_vcan_012 133#00000000B6000000
(0.302520) oc_vcan_012 136#0002000000000039
(0.302743) oc_vcan_012 13A#0000000000000037
(0.302977) oc_vcan_012 13F#000000050000003D
(0.303237) oc_vcan_012 164#0000C01AA8000013
(0.303486) oc_vcan_012 17C#0000000010000030
(0.303724) oc_vcan_012 294#040B0002CF5A003B
(0.303817) oc_vcan_012 305#8035000000000000
(0.304074) oc_vcan_012 21E#03E8374522063E00
(0.304797) oc_vcan_012 183#0000000600001032
(0.305709) oc_vcan_012 143#6B6B00FF00000000
(0.307397) oc_vcan_012 95#800007F400000026
(0.310142) oc_vcan_012 166#D032003600000000
(0.310646) oc_vcan_012 39#001B000000000000
(0.311384) oc_vcan_012 158#0000000000000037
(0.311650) oc_vcan_012 161#000005500108003A
(0.311855) oc_vcan_012 191#010010A141002900
(0.312216) oc_vcan_012 164#0000C01AA8000022
(0.312272) oc_vcan_012 133#0000000089000000
(0.312642) oc_vcan_012 136#000200000000000C
(0.312854) oc_vcan_012 13A#000000000000000A
(0.313173) oc_vcan_012 13F#0000000500000000
(0.314129) oc_vcan_012 17C#0000000010000003
(0.314239) oc_vcan_012 18E#00004D0000000000
(0.314285) oc_vcan_012 1CF#80050000002D0000
(0.314331) oc_vcan_012 1DC#0200002A00000000
(0.314402) oc_vcan_012 320#0000210000000000
(0.314449) oc_vcan_012 183#0000000C0000100F
(0.314493) oc_vcan_012 324#7465000000000E29
(0.314810) oc_vcan_012 37C#FD00FD00097F0029
(0.315830) oc_vcan_012 143#6B6B00C200000000
(0.317388) oc_vcan_012 95#800007F400000035
(0.318149) oc_vcan_012 1A4#0000000800000001
(0.318389) oc_vcan_012 1AA#7FFF000000006702
(0.318678) oc_vcan_012 1B0#000F000000014800
(0.318915) oc_vcan_012 1D0#000000000000000A
(0.320195) oc_vcan_012 166#D032000900000000
(0.321426) oc_vcan_012 158#000000000000000A
(0.321682) oc_vcan_012 161#000005500108000D
(0.321827) oc_vcan_012 191#010010A141003800
(0.322128) oc_vcan_012 18E#00005C0000000000
(0.322336) oc_vcan_012 133#0000000098000000
(0.322715) oc_vcan_012 136#000200000000001B
(0.322761) oc_vcan_012 13A#0000000000000019
(0.323112) oc_vcan_012 13F#000000050000001F
(0.323330) oc_vcan_012 164#0000C01AA8000031
(0.323576) oc_vcan_012 17C#0000000010000012
(0.324826) oc_vcan_012 183#0000000900001011
(0.325750) oc_vcan_012 143#6B6B00D100000000
(0.327387) oc_vcan_012 95#800007F400000008
(0.330180) oc_vcan_012 166#D032001800000000
(0.331556) oc_vcan_012 158#0000000000000019
(0.331693) oc_vcan_012 161#000005500108001C
(0.331763) oc_vcan_012 39#002A000000000000
(0.332022) oc_vcan_012 164#0000C01AA8000004
(0.332210) oc_vcan_012 191#010010A141000B00
(0.332384) oc_vcan_012 133#00000000A7000000
(0.332746) oc_vcan_012 136#000200000000002A
(0.332837) oc_vcan_012 13A#0000000000000028
(0.333143) oc_vcan_012 13F#000000050000002E
(0.333426) oc_vcan_012 17C#0000000010000021
(0.333481) oc_vcan_012 18E#00006B0000000000
(0.333757) oc_vcan_012 1CF#80050000003C0000
(0.333831) oc_vcan_012 1DC#0200003900000000
(0.334259) oc_vcan_012 183#0000000E0000102B
(0.335692) oc_vcan_012 143#6B6B00E000000000
(0.337407) oc_vcan_012 95#800007F400000017
(0.338158) oc_vcan_012 1A4#0000000800000010
(0.338393) oc_vcan_012 1AA#7FFF000000006810
(0.338632) oc_vcan_012 1B0#000F000000015700
(0.338858) oc_vcan_012 1D0#000000000000000A
(0.340152) oc_vcan_012 166#D032002700000000
(0.341407) oc_vcan_012 158#0000000000000028
(0.341695) oc_vcan_012 161#000005500108002B
(0.341831) oc_vcan_012 191#010010A141001A00
(0.342176) oc_vcan_012 164#0000C01AA8000013
(0.342364) oc_vcan_012 133#00000000B6000000
(0.342585) oc_vcan_012 136#0002000000000039
(0.342859) oc_vcan_012 13A#0000000000000037
(0.343098) oc_vcan_012 13F#000000050000003D
(0.343341) oc_vcan_012 17C#0000000010000030
(0.343390) oc_vcan_012 18E#00007A0000000000
(0.343708) oc_vcan_012 294#040B0002CF5A000E
(0.344008) oc_vcan_012 21E#03E8374522060100
(0.344289) oc_vcan_012 309#00000000000000B1
(0.344798) oc_vcan_012 183#0000000A0000103E
(0.344840) oc_vcan_012 39#0039000000000000
(0.345679) oc_vcan_012 143#6B6B00FF00000000
(0.347394) oc_vcan_012 95#800007F400000026
(0.350150) oc_vcan_012 166#D032003600000000
(0.351427) oc_vcan_012 158#0000000000000037
(0.351662) oc_vcan_012 161#000005500108003A
(0.351875) oc_vcan_012 191#010010A141002900
(0.352105) oc_vcan_012 164#0000C01AA8000022
(0.352273) oc_vcan_012 133#0000000089000000
(0.352567) oc_vcan_012 136#000200000000000C
(0.352859) oc_vcan_012 13A#000000000000000A
(0.353022) oc_vcan_012 13F#0000000500000000
(0.353286) oc_vcan_012 17C#0000000010000003
(0.353334) oc_vcan_012 18E#00004D0000000000
(0.353673) oc_vcan_012 1CF#80050000000F0000
(0.353720) oc_vcan_012 1DC#0200000C00000000
(0.354253) oc_vcan_012 183#0000000700001004
(0.355685) oc_vcan_012 143#6B6B00C200000000
(0.357407) oc_vcan_012 95#800007F400000035
(0.358154) oc_vcan_012 1A4#000000080000002F
(0.358448) oc_vcan_012 1AA#7FFF00000000682F
(0.358682) oc_vcan_012 1B0#000F000000016600
(0.358735) oc_vcan_012 39#000C000000000000
(0.359027) oc_vcan_012 1D0#000000000000000A
(0.360193) oc_vcan_012 166#D032000900000000
(0.361406) oc_vcan_012 158#000000000000000A
(0.361636) oc_vcan_012 161#000005500108000D
(0.361830) oc_vcan_012 191#010010A141003800
(0.362151) oc_vcan_012 18E#00005C0000000000
(0.362345) oc_vcan_012 133#0000000098000000
(0.362668) oc_vcan_012 136#000200000000001B
(0.362888) oc_vcan_012 13A#0000000000000019
(0.363126) oc_vcan_012 13F#000000050000001F
(0.363374) oc_vcan_012 164#0000C01AA8000031
(0.363602) oc_vcan_012 17C#0000000010000012
(0.364697) oc_vcan_012 183#0000000D0000101D
(0.365639) oc_vcan_012 143#6B6B00D100000000
(0.367421) oc_vcan_012 95#800007F400000008
(0.370150) oc_vcan_012 166#D032001800000000
(0.371398) oc_vcan_012 158#0000000000000019
(0.371728) oc_vcan_012 161#000005500108001C
(0.371821) oc_vcan_012 191#010010A141000B00
(0.372119) oc_vcan_012 164#0000C01AA8000004
(0.372181) oc_vcan_012 133#00000000A7000000
(0.372553) oc_vcan_012 136#000200000000002A
(0.372849) oc_vcan_012 13A#0000000000000028
(0.372929) oc_vcan_012 13F#000000050000002E
(0.373272) oc_vcan_012 17C#0000000010000021
(0.373323) oc_vcan_012 18E#00006B0000000000
(0.373696) oc_vcan_012 1CF#80050000001E0000
(0.373763) oc_vcan_012 1DC#0200001B00000000
(0.374297) oc_vcan_012 183#0000000900001020
(0.374870) oc_vcan_012 39#001B000000000000
(0.375699) oc_vcan_012 143#6B6B00E000000000
(0.377430) oc_vcan_012 95#800007F400000017
(0.378224) oc_vcan_012 1A4#000000080000003E
(0.378470) oc_vcan_012 1AA#7FFF00000000673F
(0.378708) oc_vcan_012 1B0#000F000000017500
(0.378958) oc_vcan_012 1D0#000000000000000A
(0.380159) oc_vcan_012 166#D032002700000000
(0.381407) oc_vcan_012 158#0000000000000028
(0.381636) oc_vcan_012 161#000005500108002B
(0.381875) oc_vcan_012 191#010010A141001A00
(0.382205) oc_vcan_012 164#0000C01AA8000013
(0.382365) oc_vcan_012 133#00000000B6000000
(0.382637) oc_vcan_012 136#0002000000000039
(0.382891) oc_vcan_012 13A#0000000000000037
(0.383105) oc_vcan_012 13F#000000050000003D
(0.383354) oc_vcan_012 17C#0000000010000030
(0.383400) oc_vcan_012 18E#00007A0000000000
(0.383754) oc_vcan_012 294#040B0002CF5A001D
(0.384014) oc_vcan_012 21E#03E8374522061000
(0.384821) oc_vcan_012 183#0000000600001032
(0.385716) oc_vcan_012 143#6B6B00FF00000000
(0.387445) oc_vcan_012 95#800007F400000026
(0.390192) oc_vcan_012 166#D032003600000000
(0.391424) oc_vcan_012 158#0000000000000037
(0.391697) oc_vcan_012 161#000005500108003A
(0.391850) oc_vcan_012 191#010010A141002900
(0.392093) oc_vcan_012 164#0000C01AA8000022
(0.392266) oc_vcan_012 133#0000000089000000
(0.392524) oc_vcan_012 136#000200000000000C
(0.392807) oc_vcan_012 13A#000000000000000A
(0.393026) oc_vcan_012 13F#0000000500000000
(0.393259) oc_vcan_012 17C#0000000010000003
(0.393392) oc_vcan_012 18E#00004D0000000000
(0.393606) oc_vcan_012 1CF#80050000002D0000
(0.393718) oc_vcan_012 1DC#0200002A00000000
(0.394265) oc_vcan_012 183#0000000C0000100F
(0.394675) oc_vcan_012 39#002A000000000000
(0.395734) oc_vcan_012 143#6B6B00C200000000
(0.396194) oc_vcan_012 333#0000000000003C00
(0.397439) oc_vcan_012 95#800007F400000035
(0.398165) oc_vcan_012 1A4#0000000800000001
(0.398404) oc_vcan_012 1AA#7FFF000000006702
(0.398698) oc_vcan_012 1B0#000F000000014800
(0.398882) oc_vcan_012 1D0#000000000000000A
(0.400179) oc_vcan_012 166#D032000900000000
(0.401435) oc_vcan_012 158#000000000000000A
(0.401690) oc_vcan_012 161#000005500108000D
(0.401838) oc_vcan_012 191#010010A141003800
(0.401983) oc_vcan_012 18E#00005C0000000000
(0.402240) oc_vcan_012 133#0000000098000000
(0.402485) oc_vcan_012 136#000200000000001B
(0.402729) oc_vcan_012 13A#0000000000000019
(0.402974) oc_vcan_012 13F#000000050000001F
(0.403222) oc_vcan_012 164#0000C01AA8000031
(0.403473) oc_vcan_012 17C#0000000010000012
(0.404843) oc_vcan_012 183#0000000900001011
(0.405794) oc_vcan_012 143#6B6B00D100000000
(0.406741) oc_vcan_012 305#8008000000000000
(0.407461) oc_vcan_012 95#800007F400000008
(0.410161) oc_vcan_012 166#D032001800000000
(0.411428) oc_vcan_012 158#0000000000000019
(0.411626) oc_vcan_012 161#000005500108001C
(0.411852) oc_vcan_012 191#010090A141000300
(0.412081) oc_vcan_012 164#0000C01AA8000004
(0.412280) oc_vcan_012 133#00000000A7000000
(0.412534) oc_vcan_012 136#000200000000002A
(0.412753) oc_vcan_012 13A#0000000000000028
(0.412999) oc_vcan_012 13F#000000050000002E
(0.413286) oc_vcan_012 17C#0000000010000021
(0.413335) oc_vcan_012 18E#00006B0000000000
(0.413632) oc_vcan_012 1CF#80050000003C0000
(0.413808) oc_vcan_012 1DC#0200003900000000
(0.413872) oc_vcan_012 320#0000300000000000
(0.414167) oc_vcan_012 324#7465000000000E38
(0.414417) oc_vcan_012 183#0000000E0000102B
(0.414664) oc_vcan_012 37C#FD00FD00097F0038
(0.414795) oc_vcan_012 39#0039000000000000
(0.415806) oc_vcan_012 143#6B6B00E000000000
(0.417476) oc_vcan_012 95#800007F400000017
(0.418161) oc_vcan_012 1A4#0000000800000010
(0.418458) oc_vcan_012 1AA#7FFF000000006810
(0.418692) oc_vcan_012 1B0#000F000000015700
(0.418905) oc_vcan_012 1D0#000000000000000A
(0.420194) oc_vcan_012 166#D032002700000000
(0.421453) oc_vcan_012 158#0000000000000028
(0.421689) oc_vcan_012 161#000005500108002B
(0.421830) oc_vcan_012 191#010090A141001200
(0.422227) oc_vcan_012 133#00000000B6000000
(0.422488) oc_vcan_012 136#0002000000000039
(0.422727) oc_vcan_012 13A#0000000000000037
(0.423000) oc_vcan_012 13F#000000050000003D
(0.423226) oc_vcan_012 164#0000C01AA8000013
(0.423456) oc_vcan_012 17C#0000000010000030
(0.423509) oc_vcan_012 18E#00007A0000000000
(0.423872) oc_vcan_012 294#040B0002CF5A002C
(0.424112) oc_vcan_012 21E#03E8374522062F00
(0.424865) oc_vcan_012 183#0000000A0000103E
(0.425657) oc_vcan_012 143#6B6B00FF00000000
(0.427445) oc_vcan_012 95#800007F400000026
(0.428827) oc_vcan_012 39#000C000000000000
(0.430227) oc_vcan_012 166#D032003600000000
(0.431405) oc_vcan_012 158#0000000000000037
(0.431743) oc_vcan_012 161#000005500108003A
(0.431827) oc_vcan_012 191#010090A141002100
(0.432090) oc_vcan_012 164#0000C01AA8000022
(0.432256) oc_vcan_012 133#0000000089000000
(0.432519) oc_vcan_012 136#000200000000000C
(0.432750) oc_vcan_012 13A#000000000000000A
(0.432998) oc_vcan_012 13F#0000000500000000
(0.433271) oc_vcan_012 17C#0000000010000003
(0.433325) oc_vcan_012 18E#00004D0000000000
(0.433606) oc_vcan_012 1CF#80050000000F0000
(0.433698) oc_vcan_012 1DC#0200000C00000000
(0.434242) oc_vcan_012 183#0000000F0000100C
(0.435725) oc_vcan_012 143#6B6B00C200000000
(0.437445) oc_vcan_012 95#800007F400000035
(0.438164) oc_vcan_012 1A4#000000080000002F
(0.438400) oc_vcan_012 1AA#7FFF00000000682F
(0.438670) oc_vcan_012 1B0#000F000000016600
(0.438900) oc_vcan_012 1D0#000000000000000A
(0.440178) oc_vcan_012 166#D032000900000000
(0.441388) oc_vcan_012 158#000000000000000A
(0.441631) oc_vcan_012 161#000005500108000D
(0.441831) oc_vcan_012 191#010090A141003000
(0.442170) oc_vcan_012 18E#00005C0000000000
(0.442355) oc_vcan_012 133#0000000098000000
(0.442657) oc_vcan_012 136#000200000000001B
(0.442863) oc_vcan_012 13A#0000000000000019
(0.443116) oc_vcan_012 13F#000000050000001F
(0.443351) oc_vcan_012 164#0000C01AA8000031
(0.443591) oc_vcan_012 17C#0000000010000012
(0.443671) oc_vcan_012 39#001B000000000000
(0.443994) oc_vcan_012 309#0000000000000084
(0.444832) oc_vcan_012 183#0000000B0000101F
(0.445714) oc_vcan_012 143#6B6B00D100000000
(0.447430) oc_vcan_012 95#800007F400000008
(0.450143) oc_vcan_012 166#D032001800000000
(0.451432) oc_vcan_012 158#0000000000000019
(0.451716) oc_vcan_012 161#000005500108001C
(0.451796) oc_vcan_012 191#010090A141000300
(0.452089) oc_vcan_012 164#0000C01AA8000004
(0.452286) oc_vcan_012 133#00000000A7000000
(0.452544) oc_vcan_012 136#000200000000002A
(0.452835) oc_vcan_012 13A#0000000000000028
(0.453038) oc_vcan_012 13F#000000050000002E
(0.453261) oc_vcan_012 17C#0000000010000021
(0.453382) oc_vcan_012 18E#00006B0000000000
(0.453596) oc_vcan_012 1CF#80050000001E0000
(0.453880) oc_vcan_012 1DC#0200001B00000000
(0.454293) oc_vcan_012 183#0000000800001021
(0.455818) oc_vcan_012 143#6B6B00E000000000
(0.457456) oc_vcan_012 95#800007F400000017
(0.457656) oc_vcan_012 39#002A000000000000
(0.458227) oc_vcan_012 1A4#000000080000003E
(0.458475) oc_vcan_012 1AA#7FFF00000000673F
(0.458701) oc_vcan_012 1B0#000F000000017500
(0.458950) oc_vcan_012 1D0#000000000000000A
(0.460144) oc_vcan_012 166#D032002700000000
(0.461457) oc_vcan_012 158#0000000000000028
(0.461691) oc_vcan_012 161#000005500108002B
(0.461768) oc_vcan_012 191#010090A141001200
(0.462229) oc_vcan_012 133#00000000B6000000
(0.462473) oc_vcan_012 136#0002000000000039
(0.462728) oc_vcan_012 13A#0000000000000037
(0.462951) oc_vcan_012 13F#000000050000003D
(0.463184) oc_vcan_012 164#0000C01AA8000013
(0.463431) oc_vcan_012 17C#0000000010000030
(0.463558) oc_vcan_012 18E#00007A0000000000
(0.463836) oc_vcan_012 294#040B0002CF5A003B
(0.464092) oc_vcan_012 21E#03E8374522063E00
(0.464850) oc_vcan_012 183#0000000600001032
(0.465674) oc_vcan_012 143#6B6B00FF00000000
(0.467494) oc_vcan_012 95#800007F400000026
(0.470155) oc_vcan_012 166#D032003600000000
(0.471407) oc_vcan_012 158#0000000000000037
(0.471721) oc_vcan_012 161#000005500108003A
(0.471843) oc_vcan_012 39#0039000000000000
(0.471892) oc_vcan_012 191#010090A141002100
(0.472230) oc_vcan_012 164#0000C01AA8000022
(0.472438) oc_vcan_012 133#0000000089000000
(0.472741) oc_vcan_012 136#000200000000000C
(0.472933) oc_vcan_012 13A#000000000000000A
(0.473159) oc_vcan_012 13F#0000000500000000
(0.473407) oc_vcan_012 17C#0000000010000003
(0.473463) oc_vcan_012 18E#00004D0000000000
(0.473757) oc_vcan_012 1CF#80050000002D0000
(0.473836) oc_vcan_012 1DC#0200002A00000000
(0.474272) oc_vcan_012 183#0000000400001007
(0.475668) oc_vcan_012 143#6B6B00C200000000
(0.477468) oc_vcan_012 95#800007F400000035
(0.478155) oc_vcan_012 1A4#0000000800000001
(0.478401) oc_vcan_012 1AA#7FFF000000006702
(0.478728) oc_vcan_012 1B0#000F000000014800
(0.478879) oc_vcan_012 1D0#000000000000000A
(0.480165) oc_vcan_012 166#D032000900000000
(0.481404) oc_vcan_012 158#000000000000000A
(0.481706) oc_vcan_012 161#000005500108000D
(0.481802) oc_vcan_012 191#010090A141003000
(0.482256) oc_vcan_012 164#0000C01AA8000031
(0.482429) oc_vcan_012 133#0000000098000000
(0.482721) oc_vcan_012 136#000200000000001B
(0.482934) oc_vcan_012 13A#0000000000000019
(0.483180) oc_vcan_012 13F#000000050000001F
(0.483424) oc_vcan_012 17C#0000000010000012
(0.483476) oc_vcan_012 18E#00005C0000000000
(0.484701) oc_vcan_012 183#0000000300001017
(0.485694) oc_vcan_012 143#6B6B00D100000000
(0.486725) oc_vcan_012 39#000C000000000000
(0.487461) oc_vcan_012 95#800007F400000008
(0.490167) oc_vcan_012 166#D032001800000000
(0.491431) oc_vcan_012 158#0000000000000019
(0.491661) oc_vcan_012 161#000005500108001C
(0.491846) oc_vcan_012 191#010090A141000300
(0.492270) oc_vcan_012 164#0000C01AA8000004
(0.492450) oc_vcan_012 133#00000000A7000000
(0.492685) oc_vcan_012 136#000200000000002A
(0.492907) oc_vcan_012 13A#0000000000000028
(0.493159) oc_vcan_012 13F#000000050000002E
(0.493424) oc_vcan_012 17C#0000000010000021
(0.493475) oc_vcan_012 18E#00006B0000000000
(0.493749) oc_vcan_012 1CF#80050000003C0000
(0.493882) oc_vcan_012 1DC#0200003900000000
(0.494283) oc_vcan_012 183#0000000A0000102F
(0.495974) oc_vcan_012 143#6B6B00E000000000
(0.496096) oc_vcan_012 333#0000000000000F00
(0.497469) oc_vcan_012 95#800007F400000017
(0.498175) oc_vcan_012 1A4#0000000800000010
(0.498452) oc_vcan_012 1AA#7FFF000000006810
(0.498686) oc_vcan_012 1B0#000F000000015700
(0.498887) oc_vcan_012 1D0#000000000000000A
(0.500154) oc_vcan_012 166#D032002700000000
(0.501700) oc_vcan_012 158#0000000000000028
(0.501756) oc_vcan_012 161#000005500108002B
(0.501838) oc_vcan_012 191#010090A141001200
(0.502212) oc_vcan_012 133#00000000B6000000
(0.502465) oc_vcan_012 136#0002000000000039
(0.502716) oc_vcan_012 13A#0000000000000037
(0.502957) oc_vcan_012 13F#000000050000003D
(0.503196) oc_vcan_012 164#0000C01AA8000013
(0.503457) oc_vcan_012 17C#0000000010000030
(0.503515) oc_vcan_012 18E#00007A0000000000
(0.503842) oc_vcan_012 294#040B0002CF5A000E
(0.504095) oc_vcan_012 21E#03E8374522060100
(0.504744) oc_vcan_012 39#001B000000000000
(0.504954) oc_vcan_012 183#0000000700001031
(0.505670) oc_vcan_012 143#6B6B00FF00000000
(0.507465) oc_vcan_012 95#800007F400000026
(0.510154) oc_vcan_012 166#D032003600000000
(0.510721) oc_vcan_012 305#8017000000000000
(0.511441) oc_vcan_012 158#0000000000000037
(0.511663) oc_vcan_012 161#000005500108003A
(0.511842) oc_vcan_012 191#010090A141002100
(0.512220) oc_vcan_012 164#0000C01AA8000022
(0.512281) oc_vcan_012 133#0000000089000000
(0.512682) oc_vcan_012 136#000200000000000C
(0.512884) oc_vcan_012 13A#000000000000000A
(0.513109) oc_vcan_012 13F#0000000500000000
(0.513376) oc_vcan_012 17C#0000000010000003
(0.513432) oc_vcan_012 18E#00004D0000000000
(0.513768) oc_vcan_012 1CF#80050000000F0000
(0.513888) oc_vcan_012 1DC#0200000C00000000
(0.514051) oc_vcan_012 320#0000030000000000
(0.514287) oc_vcan_012 324#7465000000000E0B
(0.514525) oc_vcan_012 183#0000000D0000100E
(0.514758) oc_vcan_012 37C#FD00FD00097F000B
(0.515002) oc_vcan_012 40C#033133383439000D
(0.515118) oc_vcan_012 454#23EF090000000000
(0.515754) oc_vcan_012 143#6B6B00C200000000
(0.517472) oc_vcan_012 95#800007F400000035
(0.518176) oc_vcan_012 1A4#000000080000002F
(0.518870) oc_vcan_012 1AA#7FFF00000000682F
(0.518956) oc_vcan_012 1B0#000F000000016600
(0.519003) oc_vcan_012 39#002A000000000000
(0.519067) oc_vcan_012 1D0#000000000000000A
(0.520167) oc_vcan_012 166#D032000900000000
(0.521428) oc_vcan_012 158#000000000000000A
(0.521655) oc_vcan_012 161#000005500108000D
(0.521908) oc_vcan_012 191#010090A141003000
(0.521947) oc_vcan_012 18E#00005C0000000000
(0.522261) oc_vcan_012 133#0000000098000000
(0.522460) oc_vcan_012 136#000200000000001B
(0.522723) oc_vcan_012 13A#0000000000000019
(0.522970) oc_vcan_012 13F#000000050000001F
(0.523211) oc_vcan_012 164#0000C01AA8000031
(0.523458) oc_vcan_012 17C#0000000010000012
(0.524878) oc_vcan_012 183#0000000900001011
(0.525788) oc_vcan_012 143#6B6B00D100000000
(0.527467) oc_vcan_012 95#800007F400000008
(0.530147) oc_vcan_012 166#D032001800000000
(0.531398) oc_vcan_012 158#0000000000000019
(0.531683) oc_vcan_012 161#000005500108001C
(0.531837) oc_vcan_012 191#010090A141000300
(0.532104) oc_vcan_012 164#0000C01AA8000004
(0.532268) oc_vcan_012 133#00000000A7000000
(0.532320) oc_vcan_012 39#0039000000000000
(0.532654) oc_vcan_012 136#000200000000002A
(0.532883) oc_vcan_012 13A#0000000000000028
(0.533166) oc_vcan_012 13F#000000050000002E
(0.533403) oc_vcan_012 17C#0000000010000021
(0.533450) oc_vcan_012 18E#00006B0000000000
(0.533820) oc_vcan_012 1CF#80050000001E0000
(0.533880) oc_vcan_012 1DC#0200001B00000000
(0.534306) oc_vcan_012 183#0000000600001023
(0.535806) oc_vcan_012 143#6B6B00E000000000
(0.537469) oc_vcan_012 95#800007F400000017
(0.538211) oc_vcan_012 1A4#000000080000003E
(0.538480) oc_vcan_012 1AA#7FFF00000000673F
(0.538694) oc_vcan_012 1B0#000F000000017500
(0.538952) oc_vcan_012 1D0#000000000000000A
(0.540502) oc_vcan_012 166#D032002700000000
(0.541437) oc_vcan_012 158#0000000000000028
(0.541646) oc_vcan_012 161#000005500108002B
(0.541840) oc_vcan_012 191#010090A141001200
(0.542182) oc_vcan_012 164#0000C01AA8000013
(0.542345) oc_vcan_012 133#00000000B6000000
(0.542600) oc_vcan_012 136#0002000000000039
(0.542852) oc_vcan_012 13A#0000000000000037
(0.543089) oc_vcan_012 13F#000000050000003D
(0.543367) oc_vcan_012 17C#0000000010000030
(0.543425) oc_vcan_012 18E#00007A0000000000
(0.543727) oc_vcan_012 294#040B0002CF5A001D
(0.543995) oc_vcan_012 21E#03E8374522061000
(0.544278) oc_vcan_012 309#0000000000000093
(0.544533) oc_vcan_012 428#01040000521C1000
(0.544835) oc_vcan_012 405#000004000000001A
(0.545155) oc_vcan_012 183#0000000C0000103C
(0.546718) oc_vcan_012 143#6B6B00FF00000000
(0.547453) oc_vcan_012 95#800007F400000026
(0.548685) oc_vcan_012 39#000C000000000000
(0.550131) oc_vcan_012 166#D032003600000000
(0.551396) oc_vcan_012 158#0000000000000037
(0.551734) oc_vcan_012 161#000005500108003A
(0.551831) oc_vcan_012 191#010090A141002100
(0.552089) oc_vcan_012 164#0000C01AA8000022
(0.552266) oc_vcan_012 133#0000000089000000
(0.552517) oc_vcan_012 136#000200000000000C
(0.552764) oc_vcan_012 13A#000000000000000A
(0.552993) oc_vcan_012 13F#0000000500000000
(0.553256) oc_vcan_012 17C#0000000010000003
(0.553385) oc_vcan_012 18E#00004D0000000000
(0.553596) oc_vcan_012 1CF#80050000002D0000
(0.553693) oc_vcan_012 1DC#0200002A00000000
(0.554268) oc_vcan_012 183#0000000900001002
(0.555672) oc_vcan_012 143#6B6B00C200000000
(0.557462) oc_vcan_012 95#800007F400000035
(0.558160) oc_vcan_012 1A4#0000000800000001
(0.558389) oc_vcan_012 1AA#7FFF000000006702
(0.558642) oc_vcan_012 1B0#000F000000014800
(0.558871) oc_vcan_012 1D0#000000000000000A
(0.560172) oc_vcan_012 166#D032000900000000
(0.561428) oc_vcan_012 158#000000000000000A
(0.561692) oc_vcan_012 161#000005500108000D
(0.561747) oc_vcan_012 39#001B000000000000
(0.561981) oc_vcan_012 191#010090A141003000
(0.562207) oc_vcan_012 164#0000C01AA8000031
(0.562383) oc_vcan_012 133#0000000098000000
(0.562815) oc_vcan_012 136#000200000000001B
(0.562876) oc_vcan_012 13A#0000000000000019
(0.563186) oc_vcan_012 13F#000000050000001F
(0.563400) oc_vcan_012 17C#0000000010000012
(0.563545) oc_vcan_012 18E#00005C0000000000
(0.564841) oc_vcan_012 183#0000000600001014
(0.565641) oc_vcan_012 143#6B6B00D100000000
(0.567724) oc_vcan_012 95#800007F400000008
(0.570196) oc_vcan_012 166#D032001800000000
(0.571424) oc_vcan_012 158#0000000000000019
(0.571679) oc_vcan_012 161#000005500108001C
(0.571852) oc_vcan_012 191#010090A141000300
(0.572078) oc_vcan_012 164#0000C01AA8000004
(0.572262) oc_vcan_012 133#00000000A7000000
(0.572509) oc_vcan_012 136#000200000000002A
(0.572751) oc_vcan_012 13A#0000000000000028
(0.572976) oc_vcan_012 13F#000000050000002E
(0.573238) oc_vcan_012 17C#0000000010000021
(0.573363) oc_vcan_012 18E#00006B0000000000
(0.573600) oc_vcan_012 1CF#80050000003C0000
(0.573721) oc_vcan_012 1DC#0200003900000000
(0.574306) oc_vcan_012 183#0000000400001025
(0.575751) oc_vcan_012 143#6B6B00E000000000
(0.575821) oc_vcan_012 39#002A000000000000
(0.577609) oc_vcan_012 95#800007F400000017
(0.578173) oc_vcan_012 1A4#0000000800000010
(0.578398) oc_vcan_012 1AA#7FFF000000006810
(0.578709) oc_vcan_012 1B0#000F000000015700
(0.578883) oc_vcan_012 1D0#000000000000000A
(0.580151) oc_vcan_012 166#D032002700000000
(0.581404) oc_vcan_012 158#0000000000000028
(0.581650) oc_vcan_012 161#000005500108002B
(0.581908) oc_vcan_012 191#010090A141001200
(0.582199) oc_vcan_012 164#0000C01AA8000013
(0.582463) oc_vcan_012 133#00000000B6000000
(0.582628) oc_vcan_012 136#0002000000000039
(0.582872) oc_vcan_012 13A#0000000000000037
(0.583106) oc_vcan_012 13F#000000050000003D
(0.583357) oc_vcan_012 17C#0000000010000030
(0.583489) oc_vcan_012 18E#00007A0000000000
(0.583805) oc_vcan_012 294#040B0002CF5A002C
(0.584019) oc_vcan_012 21E#03E8374522062F00
(0.584840) oc_vcan_012 183#0000000300001035
(0.585657) oc_vcan_012 143#6B6B00FF00000000
(0.587513) oc_vcan_012 95#800007F400000026
(0.590148) oc_vcan_012 166#D032003600000000
(0.590687) oc_vcan_012 39#0039000000000000
(0.591403) oc_vcan_012 158#0000000000000037
(0.591693) oc_vcan_012 161#000005500108003A
(0.591842) oc_vcan_012 191#010090A141002100
(0.592086) oc_vcan_012 164#0000C01AA8000022
(0.592259) oc_vcan_012 133#0000000089000000
(0.592521) oc_vcan_012 136#000200000000000C
(0.592767) oc_vcan_012 13A#000000000000000A
(0.592995) oc_vcan_012 13F#0000000500000000
(0.593256) oc_vcan_012 17C#0000000010000003
(0.593382) oc_vcan_012 18E#00004D0000000000
(0.593663) oc_vcan_012 1CF#80050000000F0000
(0.593709) oc_vcan_012 1DC#0200000C00000000
(0.594297) oc_vcan_012 183#0000000A00001001
(0.595687) oc_vcan_012 143#6B6B00C200000000
(0.596162) oc_vcan_012 333#0000000000001E00
(0.597473) oc_vcan_012 95#800007F400000035
(0.598144) oc_vcan_012 1A4#000000080000002F
(0.598393) oc_vcan_012 1AA#7FFF00000000682F
(0.598688) oc_vcan_012 1B0#000F000000016600
(0.598873) oc_vcan_012 1D0#000000000000000A
(0.600149) oc_vcan_012 166#D032000900000000
(0.601391) oc_vcan_012 158#000000000000000A
(0.601609) oc_vcan_012 161#000005500108000D
(0.601825) oc_vcan_012 191#010090A141003000
(0.602224) oc_vcan_012 133#0000000098000000
(0.602479) oc_vcan_012 136#000200000000001B
(0.602716) oc_vcan_012 13A#0000000000000019
(0.602974) oc_vcan_012 13F#000000050000001F
(0.603266) oc_vcan_012 164#0000C01AA8000031
(0.603429) oc_vcan_012 17C#0000000010000012
(0.603562) oc_vcan_012 18E#00005C0000000000
(0.604730) oc_vcan_012 183#0000000700001013
(0.604800) oc_vcan_012 39#000C000000000000
(0.605679) oc_vcan_012 143#6B6B00D100000000
(0.607464) oc_vcan_012 95#800007F400000008
(0.610155) oc_vcan_012 166#D032001800000000
(0.611393) oc_vcan_012 158#0000000000000019
(0.611681) oc_vcan_012 161#000005500108001C
(0.611845) oc_vcan_012 191#010090A141000300
(0.612154) oc_vcan_012 164#0000C01AA8000004
(0.612358) oc_vcan_012 133#00000000A7000000
(0.612574) oc_vcan_012 136#000200000000002A
(0.612839) oc_vcan_012 13A#0000000000000028
(0.613104) oc_vcan_012 13F#000000050000002E
(0.613313) oc_vcan_012 17C#0000000010000021
(0.613453) oc_vcan_012 18E#00006B0000000000
(0.613709) oc_vcan_012 1CF#80050000001E0000
(0.613742) oc_vcan_012 1DC#0200001B00000000
(0.613988) oc_vcan_012 320#0000120000000000
(0.614214) oc_vcan_012 324#7465000000000E1A
(0.614463) oc_vcan_012 183#0000000500001024
(0.614731) oc_vcan_012 37C#FD00FD00097F001A
(0.615767) oc_vcan_012 143#6B6B00E000000000
(0.616719) oc_vcan_012 305#8026000000000000
(0.617477) oc_vcan_012 95#800007F400000017
(0.618235) oc_vcan_012 1A4#000000080000003E
(0.618463) oc_vcan_012 1AA#7FFF00000000673F
(0.618749) oc_vcan_012 1B0#000F000000017500
(0.618970) oc_vcan_012 1D0#000000000000000A
(0.620124) oc_vcan_012 166#D032002700000000
(0.621384) oc_vcan_012 158#0000000000000028
(0.621604) oc_vcan_012 161#000005500108002B
(0.621855) oc_vcan_012 191#010090A141001200
(0.622195) oc_vcan_012 18E#00007A0000000000
(0.622238) oc_vcan_012 133#00000000B6000000
(0.622494) oc_vcan_012 136#0002000000000039
(0.622733) oc_vcan_012 13A#0000000000000037
(0.622966) oc_vcan_012 13F#000000050000003D
(0.623218) oc_vcan_012 164#0000C01AA8000013
(0.623457) oc_vcan_012 17C#0000000010000030
(0.623716) oc_vcan_012 294#040B0002CF5A003B
(0.623970) oc_vcan_012 21E#03E8374522063E00
(0.624665) oc_vcan_012 39#001B000000000000
(0.624920) oc_vcan_012 183#0000000B0000103D
(0.625597) oc_vcan_012 143#6B6B00FF00000000
(0.627514) oc_vcan_012 95#800007F400000026
(0.630179) oc_vcan_012 166#D032003600000000
(0.631410) oc_vcan_012 158#0000000000000037
(0.631647) oc_vcan_012 161#000005500108003A
(0.631845) oc_vcan_012 191#010090A141002100
(0.632106) oc_vcan_012 164#0000C01AA8000022
(0.632279) oc_vcan_012 133#0000000089000000
(0.632533) oc_vcan_012 136#000200000000000C
(0.632766) oc_vcan_012 13A#000000000000000A
(0.633005) oc_vcan_012 13F#0000000500000000
(0.633253) oc_vcan_012 17C#0000000010000003
(0.633391) oc_vcan_012 18E#00004D0000000000
(0.633699) oc_vcan_012 1CF#80050000002D0000
(0.633757) oc_vcan_012 1DC#0200002A00000000
(0.634319) oc_vcan_012 183#0000000800001003
(0.635666) oc_vcan_012 143#6B6B00C200000000
(0.637498) oc_vcan_012 95#800007F400000035
(0.638161) oc_vcan_012 1A4#0000000800000001
(0.638403) oc_vcan_012 1AA#7FFF000000006702
(0.638678) oc_vcan_012 1B0#000F000000014800
(0.638741) oc_vcan_012 39#002A000000000000
(0.639008) oc_vcan_012 1D0#000000000000000A
(0.640179) oc_vcan_012 166#D032000900000000
(0.641403) oc_vcan_012 158#000000000000000A
(0.641636) oc_vcan_012 161#000005500108000D
(0.641854) oc_vcan_012 191#010090A141003000
(0.642187) oc_vcan_012 164#0000C01AA8000031
(0.642367) oc_vcan_012 133#0000000098000000
(0.642681) oc_vcan_012 136#000200000000001B
(0.642874) oc_vcan_012 13A#0000000000000019
(0.643126) oc_vcan_012 13F#000000050000001F
(0.643368) oc_vcan_012 17C#0000000010000012
(0.643418) oc_vcan_012 18E#00005C0000000000
(0.643792) oc_vcan_012 309#00000000000000A2
(0.644858) oc_vcan_012 183#0000000D0000101D
(0.645688) oc_vcan_012 143#6B6B00D100000000
(0.647511) oc_vcan_012 95#800007F400000008
(0.650166) oc_vcan_012 166#D032001800000000
(0.651403) oc_vcan_012 158#0000000000000019
(0.651708) oc_vcan_012 161#000005500108001C
(0.651754) oc_vcan_012 191#010090A141000300
(0.652100) oc_vcan_012 164#0000C01AA8000004
(0.652272) oc_vcan_012 133#00000000A7000000
(0.652534) oc_vcan_012 136#000200000000002A
(0.652806) oc_vcan_012 13A#0000000000000028
(0.653054) oc_vcan_012 13F#000000050000002E
(0.653291) oc_vcan_012 17C#0000000010000021
(0.653347) oc_vcan_012 18E#00006B0000000000
(0.653682) oc_vcan_012 1CF#80050000003C0000
(0.653736) oc_vcan_012 1DC#0200003900000000
(0.654347) oc_vcan_012 183#0000000900001020
(0.654736) oc_vcan_012 39#0039000000000000
(0.655672) oc_vcan_012 143#6B6B00E000000000
(0.657486) oc_vcan_012 95#800007F400000017
(0.658155) oc_vcan_012 1A4#0000000800000010
(0.658395) oc_vcan_012 1AA#7FFF000000006810
(0.658665) oc_vcan_012 1B0#000F000000015700
(0.658870) oc_vcan_012 1D0#000000000000000A
(0.660129) oc_vcan_012 166#D032002700000000
(0.661396) oc_vcan_012 158#0000000000000028
(0.661821) oc_vcan_012 161#000005500108002B
(0.661871) oc_vcan_012 191#010090A141001200
(0.662276) oc_vcan_012 164#0000C01AA8000013
(0.662421) oc_vcan_012 133#00000000B6000000
(0.662674) oc_vcan_012 136#0002000000000039
(0.662925) oc_vcan_012 13A#0000000000000037
(0.663176) oc_vcan_012 13F#000000050000003D
(0.663428) oc_vcan_012 17C#0000000010000030
(0.663480) oc_vcan_012 18E#00007A0000000000
(0.663816) oc_vcan_012 294#040B0002CF5A000E
(0.664074) oc_vcan_012 21E#03E8374522060100
(0.664879) oc_vcan_012 183#0000000600001032
(0.665739) oc_vcan_012 143#6B6B00FF00000000
(0.667440) oc_vcan_012 95#800007F400000026
(0.667668) oc_vcan_012 5A1#9600000000006210
(0.668716) oc_vcan_012 39#000C000000000000
(0.670465) oc_vcan_012 166#D032003600000000
(0.671532) oc_vcan_012 158#0000000000000037
(0.671605) oc_vcan_012 161#000005500108003A
(0.671863) oc_vcan_012 191#010090A141002100
(0.672078) oc_vcan_012 164#0000C01AA8000022
(0.672262) oc_vcan_012 133#0000000089000000
(0.672522) oc_vcan_012 136#000200000000000C
(0.672795) oc_vcan_012 13A#000000000000000A
(0.672982) oc_vcan_012 13F#0000000500000000
(0.673261) oc_vcan_012 17C#0000000010000003
(0.673309) oc_vcan_012 18E#00004D0000000000
(0.673686) oc_vcan_012 1CF#80050000000F0000
(0.673741) oc_vcan_012 1DC#0200000C00000000
(0.674362) oc_vcan_012 183#0000000C0000100F
(0.675965) oc_vcan_012 143#6B6B00C200000000
(0.677544) oc_vcan_012 95#800007F400000035
(0.678201) oc_vcan_012 1A4#000000080000002F
(0.678470) oc_vcan_012 1AA#7FFF00000000682F
(0.678554) oc_vcan_012 1B0#000F000000016600
(0.678934) oc_vcan_012 1D0#000000000000000A
(0.680220) oc_vcan_012 166#D032000900000000
(0.681417) oc_vcan_012 158#000000000000000A
(0.681632) oc_vcan_012 161#000005500108000D
(0.681874) oc_vcan_012 191#010090A141003000
(0.682192) oc_vcan_012 164#0000C01AA8000031
(0.682344) oc_vcan_012 133#0000000098000000
(0.682597) oc_vcan_012 136#000200000000001B
(0.682839) oc_vcan_012 13A#0000000000000019
(0.683096) oc_vcan_012 13F#000000050000001F
(0.683347) oc_vcan_012 17C#0000000010000012
(0.683396) oc_vcan_012 18E#00005C0000000000
(0.683601) oc_vcan_012 39#001B000000000000
(0.684833) oc_vcan_012 183#0000000900001011
(0.685748) oc_vcan_012 143#6B6B00D100000000
(0.687464) oc_vcan_012 95#800007F400000008
(0.690178) oc_vcan_012 166#D032001800000000
(0.691507) oc_vcan_012 158#0000000000000019
(0.691563) oc_vcan_012 161#000005500108001C
(0.691883) oc_vcan_012 191#010090A141000300
(0.692016) oc_vcan_012 164#0000C01AA8000004
(0.692315) oc_vcan_012 133#00000000A7000000
(0.692548) oc_vcan_012 136#000200000000002A
(0.692807) oc_vcan_012 13A#0000000000000028
(0.693025) oc_vcan_012 13F#000000050000002E
(0.693281) oc_vcan_012 17C#0000000010000021
(0.693337) oc_vcan_012 18E#00006B0000000000
(0.693659) oc_vcan_012 1CF#80050000001E0000
(0.693731) oc_vcan_012 1DC#0200001B00000000
(0.694345) oc_vcan_012 183#0000000600001023
(0.695599) oc_vcan_012 143#6B6B00E000000000
(0.696288) oc_vcan_012 333#0000000000002D00
(0.696350) oc_vcan_012 39#002A000000000000
(0.697896) oc_vcan_012 95#800007F400000017
(0.698381) oc_vcan_012 1A4#000000080000003E
(0.698443) oc_vcan_012 1AA#7FFF00000000673F
(0.698708) oc_vcan_012 1B0#000F000000017500
(0.699098) oc_vcan_012 1D0#000000000000000A
(0.700150) oc_vcan_012 166#D032002700000000
(0.701406) oc_vcan_012 158#0000000000000028
(0.701638) oc_vcan_012 161#000005500108002B
(0.701835) oc_vcan_012 191#010090A141001200
(0.702189) oc_vcan_012 133#00000000B6000000
(0.702441) oc_vcan_012 136#0002000000000039
(0.702723) oc_vcan_012 13A#0000000000000037
(0.702943) oc_vcan_012 13F#000000050000003D
(0.703207) oc_vcan_012 164#0000C01AA8000013
(0.703453) oc_vcan_012 17C#0000000010000030
(0.703518) oc_vcan_012 18E#00007A0000000000
(0.703819) oc_vcan_012 294#040B0002CF5A001D
(0.704085) oc_vcan_012 21E#03E8374522061000
(0.704864) oc_vcan_012 183#0000000C0000103C
(0.705597) oc_vcan_012 143#6B6B00FF00000000
(0.707453) oc_vcan_012 95#800007F400000026
(0.710242) oc_vcan_012 166#D032003600000000
(0.710755) oc_vcan_012 39#0039000000000000
(0.711416) oc_vcan_012 158#0000000000000037
(0.711650) oc_vcan_012 161#000005500108003A
(0.711846) oc_vcan_012 191#010010A141002900
(0.712157) oc_vcan_012 164#0000C01AA8000022
(0.712333) oc_vcan_012 133#0000000089000000
(0.712593) oc_vcan_012 136#000200000000000C
(0.712850) oc_vcan_012 13A#000000000000000A
(0.713070) oc_vcan_012 13F#0000000500000000
(0.713327) oc_vcan_012 17C#0000000010000003
(0.713370) oc_vcan_012 18E#00004D0000000000
(0.713726) oc_vcan_012 1CF#80050000002D0000
(0.713806) oc_vcan_012 1DC#0200002A00000000
(0.713995) oc_vcan_012 320#0000210000000000
(0.714246) oc_vcan_012 324#7465000000000E29
(0.714498) oc_vcan_012 183#0000000900001002
(0.714871) oc_vcan_012 37C#FD00FD00097F0029
(0.716100) oc_vcan_012 143#6B6B00C200000000
(0.717507) oc_vcan_012 95#800007F800000031
(0.718175) oc_vcan_012 1A4#0000000800000001
(0.718416) oc_vcan_012 1AA#7FFF000000006702
(0.718655) oc_vcan_012 1B0#000F000000014800
(0.718915) oc_vcan_012 1D0#000000000000000A
(0.720183) oc_vcan_012 166#D032000900000000
(0.721412) oc_vcan_012 158#000000000000000A
(0.721663) oc_vcan_012 161#000005500108000D
(0.721837) oc_vcan_012 191#010010A141003800
(0.722208) oc_vcan_012 133#0000000098000000
(0.722437) oc_vcan_012 136#000200000000001B
(0.722696) oc_vcan_012 13A#0000000000000019
(0.722981) oc_vcan_012 13F#000000050000001F
(0.723202) oc_vcan_012 164#0000C01AA8000031
(0.723280) oc_vcan_012 39#000C000000000000
(0.723682) oc_vcan_012 17C#0000000010000012
(0.723740) oc_vcan_012 18E#00005C0000000000
(0.723813) oc_vcan_012 305#8035000000000000
(0.724816) oc_vcan_012 183#0000000E0000101C
(0.725675) oc_vcan_012 143#6B6B00D100000000
(0.727457) oc_vcan_012 95#800007F800000004
(0.730156) oc_vcan_012 166#D032001800000000
(0.731403) oc_vcan_012 158#0000000000000019
(0.731655) oc_vcan_012 161#000005500108001C
(0.731843) oc_vcan_012 191#010010A141000B00
(0.732152) oc_vcan_012 164#0000C01AA8000004
(0.732330) oc_vcan_012 133#00000000A7000000
(0.732589) oc_vcan_012 136#000200000000002A
(0.732837) oc_vcan_012 13A#0000000000000028
(0.733086) oc_vcan_012 13F#000000050000002E
(0.733331) oc_vcan_012 17C#0000000010000021
(0.733387) oc_vcan_012 18E#00006B0000000000
(0.733688) oc_vcan_012 1CF#80050000003C0000
(0.733910) oc_vcan_012 1DC#0200003900000000
(0.734346) oc_vcan_012 183#0000000A0000102F
(0.735728) oc_vcan_012 143#6B6B00E000000000
(0.737445) oc_vcan_012 95#800007F800000013
(0.737690) oc_vcan_012 39#001B000000000000
(0.738159) oc_vcan_012 1A4#0000000800000010
(0.738403) oc_vcan_012 1AA#7FFF000000006810
(0.738667) oc_vcan_012 1B0#000F000000015700
(0.738890) oc_vcan_012 1D0#000000000000000A
(0.740234) oc_vcan_012 166#D032002700000000
(0.741402) oc_vcan_012 158#0000000000000028
(0.741744) oc_vcan_012 161#000005500108002B
(0.741851) oc_vcan_012 191#010010A141001A00
(0.742198) oc_vcan_012 164#0000C01AA8000013
(0.742366) oc_vcan_012 133#00000000B6000000
(0.742688) oc_vcan_012 136#0002000000000039
(0.742869) oc_vcan_012 13A#0000000000000037
(0.743117) oc_vcan_012 13F#000000050000003D
(0.743377) oc_vcan_012 17C#0000000010000030
(0.743427) oc_vcan_012 18E#00007A0000000000
(0.743750) oc_vcan_012 294#040B0002CF5A002C
(0.744014) oc_vcan_012 21E#03E8374522062F00
(0.744291) oc_vcan_012 309#00000000000000B1
(0.744900) oc_vcan_012 183#0000000700001031
(0.745700) oc_vcan_012 143#6B6B00FF00000000
(0.747455) oc_vcan_012 95#800007F800000022
(0.750215) oc_vcan_012 166#D032003600000000
(0.751446) oc_vcan_012 158#0000000000000037
(0.751682) oc_vcan_012 161#000005500108003A
(0.751858) oc_vcan_012 191#010010A141002900
(0.752126) oc_vcan_012 164#0000C01AA8000022
(0.752296) oc_vcan_012 133#0000000089000000
(0.752549) oc_vcan_012 136#000200000000000C
(0.752802) oc_vcan_012 13A#000000000000000A
(0.752873) oc_vcan_012 39#002A000000000000
(0.753182) oc_vcan_012 13F#0000000500000000
(0.753425) oc_vcan_012 17C#0000000010000003
(0.753564) oc_vcan_012 18E#00004D0000000000
(0.753798) oc_vcan_012 1CF#80050000000F0000
(0.753941) oc_vcan_012 1DC#0200000C00000000
(0.754316) oc_vcan_012 183#0000000D0000100E
(0.755695) oc_vcan_012 143#6B6B00C200000000
(0.757491) oc_vcan_012 95#800007F800000031
(0.758174) oc_vcan_012 1A4#000000080000002F
(0.758461) oc_vcan_012 1AA#7FFF00000000682F
(0.758673) oc_vcan_012 1B0#000F000000016600
(0.758869) oc_vcan_012 1D0#000000000000000A
(0.760145) oc_vcan_012 166#D032000900000000
(0.761403) oc_vcan_012 158#000000000000000A
(0.761728) oc_vcan_012 161#000005500108000D
(0.761833) oc_vcan_012 191#010010A141003800
(0.762198) oc_vcan_012 133#0000000098000000
(0.762431) oc_vcan_012 136#000200000000001B
(0.762707) oc_vcan_012 13A#0000000000000019
(0.762931) oc_vcan_012 13F#000000050000001F
(0.763170) oc_vcan_012 164#0000C01AA8000031
(0.763440) oc_vcan_012 17C#0000000010000012
(0.763489) oc_vcan_012 18E#00005C0000000000
(0.764887) oc_vcan_012 183#0000000900001011
(0.765601) oc_vcan_012 143#6B6B00D100000000
(0.766738) oc_vcan_012 39#0039000000000000
(0.767463) oc_vcan_012 95#800007F400000008
(0.770156) oc_vcan_012 166#D032001800000000
(0.771407) oc_vcan_012 158#0000000000000019
(0.771687) oc_vcan_012 161#000005500108001C
(0.771861) oc_vcan_012 191#010010A141000B00
(0.772215) oc_vcan_012 164#0000C01AA8000004
(0.772396) oc_vcan_012 133#00000000A7000000
(0.772728) oc_vcan_012 136#000200000000002A
(0.772896) oc_vcan_012 13A#0000000000000028
(0.773140) oc_vcan_012 13F#000000050000002E
(0.773384) oc_vcan_012 17C#0000000010000021
(0.773510) oc_vcan_012 18E#00006B0000000000
(0.773834) oc_vcan_012 1CF#80050000001E0000
(0.773887) oc_vcan_012 1DC#0200001B00000000
(0.774348) oc_vcan_012 183#0000000E0000102B
(0.775593) oc_vcan_012 143#6B6B00E000000000
(0.777795) oc_vcan_012 95#800007F400000017
(0.778256) oc_vcan_012 1A4#000000080000003E
(0.778472) oc_vcan_012 1AA#7FFF00000000673F
(0.778725) oc_vcan_012 1B0#000F000000017500
(0.778969) oc_vcan_012 1D0#000000000000000A
(0.780136) oc_vcan_012 166#D032002700000000
(0.781419) oc_vcan_012 158#0000000000000028
(0.782031) oc_vcan_012 161#000005500108002B
(0.782153) oc_vcan_012 39#000C000000000000
(0.782209) oc_vcan_012 191#010010A141001A00
(0.782262) oc_vcan_012 133#00000000B6000000
(0.782447) oc_vcan_012 136#0002000000000039
(0.782695) oc_vcan_012 13A#0000000000000037
(0.782965) oc_vcan_012 13F#000000050000003D
(0.783181) oc_vcan_012 164#0000C01AA8000013
(0.783425) oc_vcan_012 17C#0000000010000030
(0.783473) oc_vcan_012 18E#00007A0000000000
(0.783821) oc_vcan_012 294#040B0002CF5A003B
(0.784069) oc_vcan_012 21E#03E8374522063E00
(0.784927) oc_vcan_012 183#0000000A0000103E
(0.785648) oc_vcan_012 143#6B6B00FF00000000
(0.787463) oc_vcan_012 95#800007F400000026
(0.790168) oc_vcan_012 166#D032003600000000
(0.791408) oc_vcan_012 158#0000000000000037
(0.791655) oc_vcan_012 161#000005500108003A
(0.792104) oc_vcan_012 191#010010A141002900
(0.792207) oc_vcan_012 164#0000C01AA8000022
(0.792399) oc_vcan_012 133#0000000089000000
(0.792672) oc_vcan_012 136#000200000000000C
(0.792886) oc_vcan_012 13A#000000000000000A
(0.793130) oc_vcan_012 13F#0000000500000000
(0.793430) oc_vcan_012 17C#0000000010000003
(0.793506) oc_vcan_012 18E#00004D0000000000
(0.793798) oc_vcan_012 1CF#80050000002D0000
(0.793847) oc_vcan_012 1DC#0200002A00000000
(0.794338) oc_vcan_012 183#0000000700001004
(0.795894) oc_vcan_012 143#6B6B00C200000000
(0.796197) oc_vcan_012 333#0000000000003C00
(0.797529) oc_vcan_012 95#800007F400000035
(0.798169) oc_vcan_012 1A4#0000000800000001
(0.798411) oc_vcan_012 1AA#7FFF000000006801
(0.798651) oc_vcan_012 1B0#000F000000014800
(0.798875) oc_vcan_012 1D0#000000000000000A
(0.800164) oc_vcan_012 166#D032000900000000
(0.800697) oc_vcan_012 39#001B000000000000
(0.801383) oc_vcan_012 158#000000000000000A
(0.801606) oc_vcan_012 161#000005500108000D
(0.801858) oc_vcan_012 191#010010A141003800
(0.802193) oc_vcan_012 133#0000000098000000
(0.802502) oc_vcan_012 136#000200000000001B
(0.802715) oc_vcan_012 13A#0000000000000019
(0.802955) oc_vcan_012 13F#000000050000001F
(0.803192) oc_vcan_012 164#0000C01AA8000031
(0.803444) oc_vcan_012 17C#0000000010000012
(0.803508) oc_vcan_012 18E#00005C0000000000
(0.804884) oc_vcan_012 183#0000000D0000101D
(0.805688) oc_vcan_012 143#6B6B00D100000000
(0.807470) oc_vcan_012 95#800007F800000004
(0.810312) oc_vcan_012 166#D032001800000000
(0.811424) oc_vcan_012 158#0000000000000019
(0.811669) oc_vcan_012 161#000005500108001C
(0.811917) oc_vcan_012 191#010010A141000B00
(0.812213) oc_vcan_012 164#0000C01AA8000004
(0.812409) oc_vcan_012 133#00000000A7000000
(0.812664) oc_vcan_012 136#000200000000002A
(0.812908) oc_vcan_012 13A#0000000000000028
(0.813179) oc_vcan_012 13F#000000050000002E
(0.813405) oc_vcan_012 17C#0000000010000021
(0.813475) oc_vcan_012 18E#00006B0000000000
(0.813844) oc_vcan_012 1CF#80050000003C0000
(0.813899) oc_vcan_012 1DC#0200003900000000
(0.814065) oc_vcan_012 320#0000300000000000
(0.814306) oc_vcan_012 324#7465000000000E38
(0.814561) oc_vcan_012 183#0000000900001020
(0.814829) oc_vcan_012 37C#FD00FD00097F0038
(0.814880) oc_vcan_012 39#002A000000000000
(0.815216) oc_vcan_012 40C#0000000004000013
(0.815271) oc_vcan_012 454#23EF180000000000
(0.815721) oc_vcan_012 143#6B6B00E000000000
(0.817846) oc_vcan_012 95#800007F800000013
(0.818201) oc_vcan_012 1A4#0000000800000010
(0.818466) oc_vcan_012 1AA#7FFF000000006810
(0.818660) oc_vcan_012 1B0#000F000000015700
(0.818917) oc_vcan_012 1D0#000000000000000A
(0.820125) oc_vcan_012 166#D032002700000000
(0.821387) oc_vcan_012 158#0000000000000028
(0.821684) oc_vcan_012 161#000005500108002B
(0.821746) oc_vcan_012 191#010010A141001A00
(0.822193) oc_vcan_012 133#00000000B6000000
(0.822413) oc_vcan_012 136#0002000000000039
(0.822674) oc_vcan_012 13A#0000000000000037
(0.822908) oc_vcan_012 13F#000000050000003D
(0.823148) oc_vcan_012 164#0000C01AA8000013
(0.823405) oc_vcan_012 17C#0000000010000030
(0.823521) oc_vcan_012 18E#00007A0000000000
(0.823803) oc_vcan_012 294#040B0002CF5A000E
(0.824048) oc_vcan_012 21E#03E8374522060100
(0.824927) oc_vcan_012 183#0000000600001032
(0.825598) oc_vcan_012 143#6B6B00FF00000000
(0.827459) oc_vcan_012 95#800007F800000022
(0.827733) oc_vcan_012 39#0039000000000000
(0.828698) oc_vcan_012 305#8008000000000000
(0.830157) oc_vcan_012 166#D032003600000000
(0.831408) oc_vcan_012 158#0000000000000037
(0.831694) oc_vcan_012 161#000005500108003A
(0.831829) oc_vcan_012 191#010010A141002900
(0.832064) oc_vcan_012 164#0000C01AA8000022
(0.832276) oc_vcan_012 133#0000000089000000
(0.832602) oc_vcan_012 136#000200000000000C
(0.832703) oc_vcan_012 13A#000000000000000A
(0.833010) oc_vcan_012 13F#0000000500000000
(0.833263) oc_vcan_012 17C#0000000010000003
(0.833315) oc_vcan_012 18E#00004D0000000000
(0.833654) oc_vcan_012 1CF#80050000000F0000
(0.833692) oc_vcan_012 1DC#0200000C00000000
(0.834360) oc_vcan_012 183#0000000C0000100F
(0.835642) oc_vcan_012 143#6B6B00C200000000
(0.837470) oc_vcan_012 95#800007F800000031
(0.838148) oc_vcan_012 1A4#000000080000002F
(0.838383) oc_vcan_012 1AA#7FFF00000000682F
(0.838649) oc_vcan_012 1B0#000F000000016600
(0.838882) oc_vcan_012 1D0#000000000000000A
(0.840184) oc_vcan_012 166#D032000900000000
(0.841558) oc_vcan_012 158#000000000000000A
(0.841697) oc_vcan_012 161#000005500108000D
(0.841755) oc_vcan_012 191#010010A141003800
(0.842260) oc_vcan_012 164#0000C01AA8000031
(0.842660) oc_vcan_012 133#0000000098000000
(0.842717) oc_vcan_012 136#000200000000001B
(0.842758) oc_vcan_012 39#000C000000000000
(0.843062) oc_vcan_012 13A#0000000000000019
(0.843323) oc_vcan_012 13F#000000050000001F
(0.843586) oc_vcan_012 17C#0000000010000012
(0.843674) oc_vcan_012 18E#00005C0000000000
(0.843987) oc_vcan_012 309#0000000000000084
(0.844222) oc_vcan_012 428#01040000521C2F00
(0.844508) oc_vcan_012 405#0000040000000029
(0.844737) oc_vcan_012 183#0000000900001011
(0.845587) oc_vcan_012 143#6B6B00D100000000
(0.847470) oc_vcan_012 95#800007F800000004
(0.850160) oc_vcan_012 166#D032001800000000
(0.851406) oc_vcan_012 158#0000000000000019
(0.851631) oc_vcan_012 161#000005500108001C
(0.851845) oc_vcan_012 191#010010A141000B00
(0.852104) oc_vcan_012 164#0000C01AA8000004
(0.852280) oc_vcan_012 133#00000000A7000000
(0.852531) oc_vcan_012 136#000200000000002A
(0.852801) oc_vcan_012 13A#0000000000000028
(0.852993) oc_vcan_012 13F#000000050000002E
(0.853243) oc_vcan_012 17C#0000000010000021
(0.853377) oc_vcan_012 18E#00006B0000000000
(0.853588) oc_vcan_012 1CF#80050000001E0000
(0.853764) oc_vcan_012 1DC#0200001B00000000
(0.854362) oc_vcan_012 183#0000000E0000102B
(0.855605) oc_vcan_012 143#6B6B00E000000000
(0.857881) oc_vcan_012 95#800007F800000013
(0.857996) oc_vcan_012 39#001B000000000000
(0.858255) oc_vcan_012 1A4#000000080000003E
(0.858481) oc_vcan_012 1AA#7FFF00000000673F
(0.858822) oc_vcan_012 1B0#000F000000017500
(0.858877) oc_vcan_012 1D0#000000000000000A
(0.860134) oc_vcan_012 166#D032002700000000
(0.861419) oc_vcan_012 158#0000000000000028
(0.861649) oc_vcan_012 161#000005500108002B
(0.861839) oc_vcan_012 191#010010A141001A00
(0.862200) oc_vcan_012 164#0000C01AA8000013
(0.862378) oc_vcan_012 133#00000000B6000000
(0.862693) oc_vcan_012 136#0002000000000039
(0.862865) oc_vcan_012 13A#0000000000000037
(0.863124) oc_vcan_012 13F#000000050000003D
(0.863388) oc_vcan_012 17C#0000000010000030
(0.863446) oc_vcan_012 18E#00007A0000000000
(0.863759) oc_vcan_012 294#040B0002CF5A001D
(0.864015) oc_vcan_012 21E#03E8374522061000
(0.865274) oc_vcan_012 183#0000000A0000103E
(0.865597) oc_vcan_012 143#6B6B00FF00000000
(0.867497) oc_vcan_012 95#800007F400000026
(0.870220) oc_vcan_012 166#D032003600000000
(0.871434) oc_vcan_012 158#0000000000000037
(0.871663) oc_vcan_012 161#000005500108003A
(0.871719) oc_vcan_012 39#002A000000000000
(0.871984) oc_vcan_012 191#010010A141002900
(0.872222) oc_vcan_012 164#0000C01AA8000022
(0.872403) oc_vcan_012 133#0000000089000000
(0.872697) oc_vcan_012 136#000200000000000C
(0.872885) oc_vcan_012 13A#000000000000000A
(0.873184) oc_vcan_012 13F#0000000500000000
(0.873404) oc_vcan_012 17C#0000000010000003
(0.873454) oc_vcan_012 18E#00004D0000000000
(0.873761) oc_vcan_012 1CF#80050000002D0000
(0.873843) oc_vcan_012 1DC#0200002A00000000
(0.874363) oc_vcan_012 183#0000000F0000100C
(0.875595) oc_vcan_012 143#6B6B00C200000000
(0.877494) oc_vcan_012 95#800007F400000035
(0.878208) oc_vcan_012 1A4#0000000800000001
(0.878427) oc_vcan_012 1AA#7FFF000000006801
(0.878697) oc_vcan_012 1B0#000F000000014800
(0.878935) oc_vcan_012 1D0#000000000000000A
(0.880161) oc_vcan_012 166#D032000900000000
(0.881411) oc_vcan_012 158#000000000000000A
(0.881653) oc_vcan_012 161#000005500108000D
(0.881845) oc_vcan_012 191#010010A141003800
(0.882208) oc_vcan_012 164#0000C01AA8000031
(0.882357) oc_vcan_012 133#0000000098000000
(0.882677) oc_vcan_012 136#000200000000001B
(0.882883) oc_vcan_012 13A#0000000000000019
(0.883108) oc_vcan_012 13F#000000050000001F
(0.883352) oc_vcan_012 17C#0000000010000012
(0.883473) oc_vcan_012 18E#00005C0000000000
(0.884917) oc_vcan_012 183#0000000B0000101F
(0.885730) oc_vcan_012 143#6B6B00D100000000
(0.886704) oc_vcan_012 39#0039000000000000
(0.887489) oc_vcan_012 95#800007F400000008
(0.890194) oc_vcan_012 166#D032001800000000
(0.891409) oc_vcan_012 158#0000000000000019
(0.891639) oc_vcan_012 161#000005500108001C
(0.891825) oc_vcan_012 191#010010A141000B00
(0.892079) oc_vcan_012 164#0000C01AA8000004
(0.892257) oc_vcan_012 133#00000000A7000000
(0.892499) oc_vcan_012 136#000200000000002A
(0.892804) oc_vcan_012 13A#0000000000000028
(0.893006) oc_vcan_012 13F#000000050000002E
(0.893242) oc_vcan_012 17C#0000000010000021
(0.893376) oc_vcan_012 18E#00006B0000000000
(0.893700) oc_vcan_012 1CF#80050000003C0000
(0.893753) oc_vcan_012 1DC#0200003900000000
(0.894414) oc_vcan_012 183#0000000800001021
(0.895685) oc_vcan_012 143#6B6B00E000000000
(0.896244) oc_vcan_012 333#0000000000000F00
(0.897507) oc_vcan_012 95#800007F400000017
(0.898174) oc_vcan_012 1A4#0000000800000010
(0.898414) oc_vcan_012 1AA#7FFF000000006810
(0.898682) oc_vcan_012 1B0#000F000000015700
(0.898912) oc_vcan_012 1D0#000000000000000A
(0.900138) oc_vcan_012 166#D032002700000000
(0.900189) oc_vcan_012 39#000C000000000000
(0.901526) oc_vcan_012 158#0000000000000028
(0.901572) oc_vcan_012 161#000005500108002B
(0.901843) oc_vcan_012 191#010010A141001A00
(0.902174) oc_vcan_012 133#00000000B6000000
(0.902409) oc_vcan_012 136#0002000000000039
(0.902690) oc_vcan_012 13A#0000000000000037
(0.902910) oc_vcan_012 13F#000000050000003D
(0.903173) oc_vcan_012 164#0000C01AA8000013
(0.903530) oc_vcan_012 17C#0000000010000030
(0.903587) oc_vcan_012 18E#00007A0000000000
(0.903860) oc_vcan_012 294#040B0002CF5A002C
(0.904054) oc_vcan_012 21E#03E8374522062F00
(0.904911) oc_vcan_012 183#0000000600001032
(0.905600) oc_vcan_012 143#6B6B00FF00000000
(0.907471) oc_vcan_012 95#800007F400000026
(0.910182) oc_vcan_012 166#D032003600000000
(0.911433) oc_vcan_012 158#0000000000000037
(0.911689) oc_vcan_012 161#000005500108003A
(0.911843) oc_vcan_012 191#010010A141002900
(0.912110) oc_vcan_012 164#0000C01AA8000022
(0.912292) oc_vcan_012 133#0000000089000000
(0.912711) oc_vcan_012 136#000200000000000C
(0.912825) oc_vcan_012 13A#000000000000000A
(0.913037) oc_vcan_012 13F#0000000500000000
(0.913282) oc_vcan_012 17C#0000000010000003
(0.913411) oc_vcan_012 18E#00004D0000000000
(0.913646) oc_vcan_012 1CF#80050000000F0000
(0.913824) oc_vcan_012 1DC#0200000C00000000
(0.913872) oc_vcan_012 320#0000030000000000
(0.914225) oc_vcan_012 324#7465000000000E0B
(0.914459) oc_vcan_012 183#0000000400001007
(0.914716) oc_vcan_012 37C#FD00FD00097F000B
(0.915735) oc_vcan_012 143#6B6B00C200000000
(0.917906) oc_vcan_012 95#800007F400000035
(0.918164) oc_vcan_012 1A4#000000080000002F
(0.918534) oc_vcan_012 1AA#7FFF00000000682F
(0.918588) oc_vcan_012 1B0#000F000000016600
(0.919236) oc_vcan_012 1D0#000000000000000A
(0.920231) oc_vcan_012 39#001B000000000000
(0.920345) oc_vcan_012 166#D032000900000000
(0.921435) oc_vcan_012 158#000000000000000A
(0.921651) oc_vcan_012 161#000005500108000D
(0.921837) oc_vcan_012 191#010010A141003800
(0.922170) oc_vcan_012 133#0000000098000000
(0.922428) oc_vcan_012 136#000200000000001B
(0.922822) oc_vcan_012 13A#0000000000000019
(0.922865) oc_vcan_012 13F#000000050000001F
(0.923154) oc_vcan_012 164#0000C01AA8000031
(0.924057) oc_vcan_012 17C#0000000010000012
(0.924097) oc_vcan_012 18E#00005C0000000000
(0.924983) oc_vcan_012 183#0000000300001017
(0.925569) oc_vcan_012 143#6B6B00D100000000
(0.927492) oc_vcan_012 95#800007F400000008
(0.930234) oc_vcan_012 166#D032001800000000
(0.931408) oc_vcan_012 158#0000000000000019
(0.931733) oc_vcan_012 161#000005500108001C
(0.931827) oc_vcan_012 191#010010A141000B00
(0.932133) oc_vcan_012 164#0000C01AA8000004
(0.932203) oc_vcan_012 133#00000000A7000000
(0.932531) oc_vcan_012 136#000200000000002A
(0.932842) oc_vcan_012 13A#0000000000000028
(0.933023) oc_vcan_012 13F#000000050000002E
(0.933255) oc_vcan_012 17C#0000000010000021
(0.933302) oc_vcan_012 18E#00006B0000000000
(0.933706) oc_vcan_012 1CF#80050000001E0000
(0.933765) oc_vcan_012 39#002A000000000000
(0.933859) oc_vcan_012 1DC#0200001B00000000
(0.934379) oc_vcan_012 183#0000000A0000102F
(0.934432) oc_vcan_012 305#8017000000000000
(0.935728) oc_vcan_012 143#6B6B00E000000000
(0.937537) oc_vcan_012 95#800007F400000017
(0.938231) oc_vcan_012 1A4#000000080000003E
(0.938456) oc_vcan_012 1AA#7FFF00000000673F
(0.938745) oc_vcan_012 1B0#000F000000017500
(0.938952) oc_vcan_012 1D0#000000000000000A
(0.940170) oc_vcan_012 166#D032002700000000
(0.941409) oc_vcan_012 158#0000000000000028
(0.941691) oc_vcan_012 161#000005500108002B
(0.941747) oc_vcan_012 191#010010A141001A00
(0.942208) oc_vcan_012 164#0000C01AA8000013
(0.942371) oc_vcan_012 133#00000000B6000000
(0.942676) oc_vcan_012 136#0002000000000039
(0.942873) oc_vcan_012 13A#0000000000000037
(0.943125) oc_vcan_012 13F#000000050000003D
(0.943451) oc_vcan_012 17C#0000000010000030
(0.943505) oc_vcan_012 18E#00007A0000000000
(0.943762) oc_vcan_012 294#040B0002CF5A003B
(0.944016) oc_vcan_012 21E#03E8374522063E00
(0.944440) oc_vcan_012 309#0000000000000093
(0.944913) oc_vcan_012 183#0000000700001031
(0.945644) oc_vcan_012 143#6B6B00FF00000000
(0.947483) oc_vcan_012 95#800007F400000026
(0.947710) oc_vcan_012 39#0039000000000000
(0.950194) oc_vcan_012 166#D032003600000000
(0.951408) oc_vcan_012 158#0000000000000037
(0.951661) oc_vcan_012 161#000005500108003A
(0.951890) oc_vcan_012 191#010010A141002900
(0.952118) oc_vcan_012 164#0000C01AA8000022
(0.952272) oc_vcan_012 133#0000000089000000
(0.952537) oc_vcan_012 136#000200000000000C
(0.952763) oc_vcan_012 13A#000000000000000A
(0.953002) oc_vcan_012 13F#0000000500000000
(0.953243) oc_vcan_012 17C#0000000010000003
(0.953371) oc_vcan_012 18E#00004D0000000000
(0.953587) oc_vcan_012 1CF#80050000002D0000
(0.953748) oc_vcan_012 1DC#0200002A00000000
(0.954374) oc_vcan_012 183#0000000D0000100E
(0.955759) oc_vcan_012 143#6B6B00C200000000
(0.957541) oc_vcan_012 95#800007F400000035
(0.958220) oc_vcan_012 1A4#0000000800000001
(0.958435) oc_vcan_012 1AA#7FFF000000006801
(0.958722) oc_vcan_012 1B0#000F000000014800
(0.958878) oc_vcan_012 1D0#000000000000000A
(0.960171) oc_vcan_012 166#D032000900000000
(0.961452) oc_vcan_012 158#000000000000000A
(0.961642) oc_vcan_012 161#000005500108000D
(0.961848) oc_vcan_012 191#010010A141003800
(0.961928) oc_vcan_012 39#000C000000000000
(0.962203) oc_vcan_012 133#0000000098000000
(0.962425) oc_vcan_012 136#000200000000001B
(0.962700) oc_vcan_012 13A#0000000000000019
(0.962908) oc_vcan_012 13F#000000050000001F
(0.963146) oc_vcan_012 164#0000C01AA8000031
(0.963393) oc_vcan_012 17C#0000000010000012
(0.963540) oc_vcan_012 18E#00005C0000000000
(0.965033) oc_vcan_012 183#0000001100001018
(0.965714) oc_vcan_012 143#6B6B00D100000000
(0.967683) oc_vcan_012 95#800007F400000008
(0.970248) oc_vcan_012 166#D032001800000000
(0.971550) oc_vcan_012 158#0000000000000019
(0.971628) oc_vcan_012 161#000005500108001C
(0.971858) oc_vcan_012 191#010010A141000B00
(0.972090) oc_vcan_012 164#0000C01AA8000004
(0.972264) oc_vcan_012 133#00000000A7000000
(0.972515) oc_vcan_012 136#000200000000002A
(0.972794) oc_vcan_012 13A#0000000000000028
(0.972999) oc_vcan_012 13F#000000050000002E
(0.973237) oc_vcan_012 17C#0000000010000021
(0.973371) oc_vcan_012 18E#00006B0000000000
(0.973648) oc_vcan_012 1CF#80050000003C0000
(0.973696) oc_vcan_012 1DC#0200003900000000
(0.974382) oc_vcan_012 183#0000000C0000102D
(0.975339) oc_vcan_012 39#001B000000000000
(0.975571) oc_vcan_012 143#6B6B00E000000000
(0.977528) oc_vcan_012 95#800007F400000017
(0.978166) oc_vcan_012 1A4#0000000800000010
(0.978408) oc_vcan_012 1AA#7FFF000000006810
(0.978679) oc_vcan_012 1B0#000F000000015700
(0.979035) oc_vcan_012 1D0#000000000000000A
(0.980141) oc_vcan_012 166#D032002700000000
(0.981418) oc_vcan_012 158#0000000000000028
(0.981686) oc_vcan_012 161#000005500108002B
(0.981855) oc_vcan_012 191#010010A141001A00
(0.982214) oc_vcan_012 164#0000C01AA8000013
(0.982376) oc_vcan_012 133#00000000B6000000
(0.982642) oc_vcan_012 136#0002000000000039
(0.982874) oc_vcan_012 13A#0000000000000037
(0.983128) oc_vcan_012 13F#000000050000003D
(0.983372) oc_vcan_012 17C#0000000010000030
(0.983502) oc_vcan_012 18E#00007A0000000000
(0.983752) oc_vcan_012 294#040B0002CF5A000E
(0.984011) oc_vcan_012 21E#03E8374522060100
(0.984917) oc_vcan_012 183#000000090000103F
(0.985590) oc_vcan_012 143#6B6B00FF00000000
(0.987578) oc_vcan_012 95#800007F400000026
(0.989271) oc_vcan_012 39#002A000000000000
(0.990146) oc_vcan_012 166#D032003600000000
(0.991445) oc_vcan_012 158#0000000000000037
(0.991656) oc_vcan_012 161#000005500108003A
(0.991839) oc_vcan_012 191#010010A141002900
(0.992100) oc_vcan_012 164#0000C01AA8000022
(0.992295) oc_vcan_012 133#0000000089000000
(0.992549) oc_vcan_012 136#000200000000000C
(0.992760) oc_vcan_012 13A#000000000000000A
(0.993010) oc_vcan_012 13F#0000000500000000
(0.993250) oc_vcan_012 17C#0000000010000003
(0.993382) oc_vcan_012 18E#00004D0000000000
(0.993595) oc_vcan_012 1CF#80050000000F0000
(0.993762) oc_vcan_012 1DC#0200000C00000000
(0.994375) oc_vcan_012 183#0000000600001005
(0.995582) oc_vcan_012 143#6B6B00C200000000
(0.996538) oc_vcan_012 333#0000000000001E00
(0.997693) oc_vcan_012 95#800007F400000035
(0.998245) oc_vcan_012 1A4#000000080000002F
(0.998313) oc_vcan_012 1AA#7FFF00000000682F
(0.998806) oc_vcan_012 1B0#000F000000016600
(0.998872) oc_vcan_012 1D0#000000000000000A
(1.000175) oc_vcan_012 166#D032000900000000
(1.001389) oc_vcan_012 158#000000000000000A
(1.001609) oc_vcan_012 161#000005500108000D
(1.001833) oc_vcan_012 191#010010A141003800
(1.002172) oc_vcan_012 133#0000000098000000
(1.002419) oc_vcan_012 136#000200000000001B
(1.002832) oc_vcan_012 13A#0000000000000019
(1.002900) oc_vcan_012 13F#000000050000001F
(1.003180) oc_vcan_012 164#0000C01AA8000031
(1.003416) oc_vcan_012 17C#0000000010000012
(1.003457) oc_vcan_012 18E#00005C0000000000
(1.003817) oc_vcan_012 39#0039000000000000
(1.004895) oc_vcan_012 183#0000000C0000101E
(1.005876) oc_vcan_012 143#6B6B00D100000000
(1.007527) oc_vcan_012 95#800007F400000008
(1.010210) oc_vcan_012 166#D032001800000000
(1.011426) oc_vcan_012 158#0000000000000019
(1.011663) oc_vcan_012 161#000005500108001C
(1.011855) oc_vcan_012 191#010090A141000300
(1.012170) oc_vcan_012 164#0000C01AA8000004
(1.012319) oc_vcan_012 133#00000000A7000000
(1.012567) oc_vcan_012 136#000200000000002A
(1.012844) oc_vcan_012 13A#0000000000000028
(1.013062) oc_vcan_012 13F#000000050000002E
(1.013342) oc_vcan_012 17C#0000000010000021
(1.013386) oc_vcan_012 18E#00006B0000000000
(1.013690) oc_vcan_012 1CF#80050000001E0000
(1.013741) oc_vcan_012 1DC#0200001B00000000
(1.013981) oc_vcan_012 320#0000120000000000
(1.014226) oc_vcan_012 324#7465000000000E1A
(1.014477) oc_vcan_012 37C#FD00FD00097F001A
(1.014709) oc_vcan_012 183#0000001000001028
(1.015729) oc_vcan_012 143#6B6B00E000000000
(1.017518) oc_vcan_012 95#800007F400000017
(1.018247) oc_vcan_012 1A4#000000080000003E
(1.018472) oc_vcan_012 1AA#7FFF00000000673F
(1.018707) oc_vcan_012 1B0#000F000000017500
(1.018951) oc_vcan_012 1D0#000000000000000A
(1.020126) oc_vcan_012 166#D032002700000000
(1.021431) oc_vcan_012 158#0000000000000028
(1.021672) oc_vcan_012 161#000005500108002B
(1.021841) oc_vcan_012 191#010090A141001200
(1.022163) oc_vcan_012 133#00000000B6000000
(1.022409) oc_vcan_012 136#0002000000000039
(1.022691) oc_vcan_012 13A#0000000000000037
(1.022904) oc_vcan_012 13F#000000050000003D
(1.023149) oc_vcan_012 164#0000C01AA8000013
(1.023402) oc_vcan_012 17C#0000000010000030
(1.023458) oc_vcan_012 18E#00007A0000000000
(1.023827) oc_vcan_012 294#040B0002CF5A001D
(1.023871) oc_vcan_012 39#000C000000000000
(1.024207) oc_vcan_012 21E#03E8374522061000
(1.024962) oc_vcan_012 183#0000000C0000103C
(1.025697) oc_vcan_012 143#6B6B00FF00000000
(1.027530) oc_vcan_012 95#800007F400000026
(1.030337) oc_vcan_012 166#D032003600000000
(1.031520) oc_vcan_012 158#0000000000000037
(1.031567) oc_vcan_012 161#000005500108003A
(1.031843) oc_vcan_012 191#010090A141002100
(1.032097) oc_vcan_012 164#0000C01AA8000022
(1.032297) oc_vcan_012 133#0000000089000000
(1.032544) oc_vcan_012 136#000200000000000C
(1.032814) oc_vcan_012 13A#000000000000000A
(1.033012) oc_vcan_012 13F#0000000500000000
(1.033251) oc_vcan_012 17C#0000000010000003
(1.033385) oc_vcan_012 18E#00004D0000000000
(1.033606) oc_vcan_012 1CF#80050000002D0000
(1.033739) oc_vcan_012 1DC#0200002A00000000
(1.034378) oc_vcan_012 183#0000000900001002
(1.035606) oc_vcan_012 143#6B6B00C200000000
(1.036334) oc_vcan_012 305#8026000000000000
(1.037519) oc_vcan_012 95#800007F400000035
(1.038265) oc_vcan_012 1A4#0000000800000001
(1.038321) oc_vcan_012 1AA#7FFF000000006801
(1.038643) oc_vcan_012 1B0#000F000000014800
(1.038888) oc_vcan_012 1D0#000000000000000A
(1.040215) oc_vcan_012 166#D032000900000000
(1.041404) oc_vcan_012 158#000000000000000A
(1.041707) oc_vcan_012 161#000005500108000D
(1.041808) oc_vcan_012 191#010090A141003000
(1.042206) oc_vcan_012 164#0000C01AA8000031
(1.042409) oc_vcan_012 133#0000000098000000
(1.042709) oc_vcan_012 136#000200000000001B
(1.042875) oc_vcan_012 13A#0000000000000019
(1.043220) oc_vcan_012 13F#000000050000001F
(1.043285) oc_vcan_012 17C#0000000010000012
(1.043509) oc_vcan_012 18E#00005C0000000000
(1.043750) oc_vcan_012 309#00000000000000A2
(1.044763) oc_vcan_012 39#001B000000000000
(1.045030) oc_vcan_012 183#0000000600001014
(1.045581) oc_vcan_012 143#6B6B00D100000000
(1.047518) oc_vcan_012 95#800007F400000008
(1.050184) oc_vcan_012 166#D032001800000000
(1.051408) oc_vcan_012 158#0000000000000019
(1.051691) oc_vcan_012 161#000005500108001C
(1.051750) oc_vcan_012 191#010090A141000300
(1.052156) oc_vcan_012 133#00000000A7000000
(1.052406) oc_vcan_012 136#000200000000002A
(1.052707) oc_vcan_012 13A#0000000000000028
(1.052892) oc_vcan_012 13F#000000050000002E
(1.053137) oc_vcan_012 164#0000C01AA8000004
(1.053385) oc_vcan_012 17C#0000000010000021
(1.053440) oc_vcan_012 18E#00006B0000000000
(1.053742) oc_vcan_012 1CF#80050000003C0000
(1.053845) oc_vcan_012 1DC#0200003900000000
(1.054406) oc_vcan_012 183#0000000C0000102D
(1.055586) oc_vcan_012 143#6B6B00E000000000
(1.057524) oc_vcan_012 95#800007F400000017
(1.058160) oc_vcan_012 1A4#0000000800000010
(1.058409) oc_vcan_012 1AA#7FFF000000006810
(1.058636) oc_vcan_012 1B0#000F000000015700
(1.058684) oc_vcan_012 39#002A000000000000
(1.059017) oc_vcan_012 1D0#000000000000000A
(1.060147) oc_vcan_012 166#D032002700000000
(1.061399) oc_vcan_012 158#0000000000000028
(1.061646) oc_vcan_012 161#000005500108002B
(1.061829) oc_vcan_012 191#010090A141001200
(1.062183) oc_vcan_012 133#00000000B6000000
(1.062418) oc_vcan_012 136#0002000000000039
(1.062686) oc_vcan_012 13A#0000000000000037
(1.062902) oc_vcan_012 13F#000000050000003D
(1.063141) oc_vcan_012 164#0000C01AA8000013
(1.063402) oc_vcan_012 17C#0000000010000030
(1.063456) oc_vcan_012 18E#00007A0000000000
(1.063808) oc_vcan_012 294#040B0002CF5A002C
(1.064031) oc_vcan_012 21E#03E8374522062F00
(1.064934) oc_vcan_012 183#0000001000001037
(1.065567) oc_vcan_012 143#6B6B00FF00000000
(1.067527) oc_vcan_012 95#800007F400000026
(1.070225) oc_vcan_012 166#D032003600000000
(1.071415) oc_vcan_012 158#0000000000000037
(1.071650) oc_vcan_012 161#000005500108003A
(1.071852) oc_vcan_012 191#010090A141002100
(1.072192) oc_vcan_012 164#0000C01AA8000022
(1.072362) oc_vcan_012 133#0000000089000000
(1.072672) oc_vcan_012 136#000200000000000C
(1.072863) oc_vcan_012 13A#000000000000000A
(1.073111) oc_vcan_012 13F#0000000500000000
(1.073355) oc_vcan_012 17C#0000000010000003
(1.073421) oc_vcan_012 18E#00004D0000000000
(1.073747) oc_vcan_012 1CF#80050000000F0000
(1.073874) oc_vcan_012 39#0039000000000000
(1.073929) oc_vcan_012 1DC#0200000C00000000
(1.074399) oc_vcan_012 183#0000000C0000100F
(1.075567) oc_vcan_012 143#6B6B00C200000000
(1.077531) oc_vcan_012 95#800007F400000035
(1.078177) oc_vcan_012 1A4#000000080000002F
(1.078468) oc_vcan_012 1AA#7FFF00000000682F
(1.078644) oc_vcan_012 1B0#000F000000016600
(1.078965) oc_vcan_012 1D0#000000000000000A
(1.080240) oc_vcan_012 166#D032000900000000
(1.081444) oc_vcan_012 158#000000000000000A
(1.081751) oc_vcan_012 161#000005500108000D
(1.082005) oc_vcan_012 191#010090A141003000
(1.082158) oc_vcan_012 133#0000000098000000
(1.082418) oc_vcan_012 136#000200000000001B
(1.082703) oc_vcan_012 13A#0000000000000019
(1.082935) oc_vcan_012 13F#000000050000001F
(1.083138) oc_vcan_012 164#0000C01AA8000031
(1.083395) oc_vcan_012 17C#0000000010000012
(1.083518) oc_vcan_012 18E#00005C0000000000
(1.084824) oc_vcan_012 183#0000001000001019
(1.085558) oc_vcan_012 143#6B6B00D100000000
(1.086804) oc_vcan_012 39#000C000000000000
(1.087524) oc_vcan_012 95#800007F400000008
(1.090162) oc_vcan_012 166#D032001800000000
(1.091421) oc_vcan_012 158#0000000000000019
(1.091682) oc_vcan_012 161#000005500108001C
(1.091837) oc_vcan_012 191#010090A141000300
(1.092242) oc_vcan_012 164#0000C01AA8000004
(1.092486) oc_vcan_012 133#00000000A7000000
(1.092714) oc_vcan_012 136#000200000000002A
(1.093153) oc_vcan_012 13A#0000000000000028
(1.093212) oc_vcan_012 13F#000000050000002E
(1.093388) oc_vcan_012 17C#0000000010000021
(1.093439) oc_vcan_012 18E#00006B0000000000
(1.093805) oc_vcan_012 1CF#80050000001E0000
(1.093864) oc_vcan_012 1DC#0200001B00000000
(1.094556) oc_vcan_012 183#0000000C0000102D
(1.095593) oc_vcan_012 143#6B6B00E000000000
(1.096199) oc_vcan_012 333#0000000000002D00
(1.097565) oc_vcan_012 95#800007F400000017
(1.098228) oc_vcan_012 1A4#000000080000003E
(1.098589) oc_vcan_012 1AA#7FFF00000000673F
(1.098649) oc_vcan_012 1B0#000F000000017500
(1.098938) oc_vcan_012 1D0#000000000000000A
(1.100229) oc_vcan_012 166#D032002700000000
(1.101546) oc_vcan_012 158#0000000000000028
(1.101676) oc_vcan_012 161#000005500108002B
(1.101838) oc_vcan_012 191#010090A141001200
(1.102161) oc_vcan_012 133#00000000B6000000
(1.102418) oc_vcan_012 136#0002000000000039
(1.102684) oc_vcan_012 13A#0000000000000037
(1.102914) oc_vcan_012 13F#000000050000003D
(1.103406) oc_vcan_012 164#0000C01AA8000013
(1.103469) oc_vcan_012 17C#0000000010000030
(1.103515) oc_vcan_012 18E#00007A0000000000
(1.103843) oc_vcan_012 294#040B0002CF5A003B
(1.104042) oc_vcan_012 21E#03E8374522063E00
(1.104957) oc_vcan_012 183#000000090000103F
(1.105668) oc_vcan_012 143#6B6B00FF00000000
(1.107285) oc_vcan_012 39#001B000000000000
(1.107539) oc_vcan_012 95#800007F400000026
(1.110160) oc_vcan_012 166#D032003600000000
(1.111413) oc_vcan_012 158#0000000000000037
(1.111670) oc_vcan_012 161#000005500108003A
(1.111861) oc_vcan_012 191#010090A141002100
(1.112234) oc_vcan_012 164#0000C01AA8000022
(1.112393) oc_vcan_012 133#0000000089000000
(1.112688) oc_vcan_012 136#000200000000000C
(1.112868) oc_vcan_012 13A#000000000000000A
(1.113133) oc_vcan_012 13F#0000000500000000
(1.113390) oc_vcan_012 17C#0000000010000003
(1.113430) oc_vcan_012 18E#00004D0000000000
(1.113720) oc_vcan_012 1CF#80050000002D0000
(1.113878) oc_vcan_012 1DC#0200002A00000000
(1.114025) oc_vcan_012 320#0000210000000000
(1.114293) oc_vcan_012 324#7465000000000E29
(1.114575) oc_vcan_012 183#0000000E0000100D
(1.114820) oc_vcan_012 37C#FD00FD00097F0029
(1.115017) oc_vcan_012 40C#014A484D46413325
(1.115146) oc_vcan_012 454#23EF270000000000
(1.115679) oc_vcan_012 143#6B6B00C200000000
(1.117547) oc_vcan_012 95#800007F400000035
(1.118162) oc_vcan_012 1A4#0000000800000001
(1.118413) oc_vcan_012 1AA#7FFF000000006801
(1.118669) oc_vcan_012 1B0#000F000000014800
(1.118880) oc_vcan_012 1D0#000000000000000A
(1.120152) oc_vcan_012 166#D032000900000000
(1.121397) oc_vcan_012 158#000000000000000A
(1.121687) oc_vcan_012 161#000005500108000D
(1.121744) oc_vcan_012 191#010090A141003000
(1.122175) oc_vcan_012 133#0000000098000000
(1.122391) oc_vcan_012 136#000200000000001B
(1.122670) oc_vcan_012 13A#0000000000000019
(1.122887) oc_vcan_012 13F#000000050000001F
(1.123122) oc_vcan_012 164#0000C01AA8000031
(1.123401) oc_vcan_012 17C#0000000010000012
(1.123441) oc_vcan_012 18E#00005C0000000000
(1.124964) oc_vcan_012 183#0000000A00001010
(1.125532) oc_vcan_012 143#6B6B00D100000000
(1.127540) oc_vcan_012 95#800007F400000008
(1.127727) oc_vcan_012 39#002A000000000000
(1.130166) oc_vcan_012 166#D032001800000000
(1.131408) oc_vcan_012 158#0000000000000019
(1.131723) oc_vcan_012 161#000005500108001C
(1.131820) oc_vcan_012 191#010090A141000300
(1.132153) oc_vcan_012 164#0000C01AA8000004
(1.132236) oc_vcan_012 133#00000000A7000000
(1.132541) oc_vcan_012 136#000200000000002A
(1.132757) oc_vcan_012 13A#0000000000000028
(1.133007) oc_vcan_012 13F#000000050000002E
(1.133243) oc_vcan_012 17C#0000000010000021
(1.133373) oc_vcan_012 18E#00006B0000000000
(1.133587) oc_vcan_012 1CF#80050000003C0000
(1.133823) oc_vcan_012 1DC#0200003900000000
(1.134413) oc_vcan_012 183#0000000700001022
(1.135545) oc_vcan_012 143#6B6B00E000000000
(1.137589) oc_vcan_012 95#800007F400000017
(1.138134) oc_vcan_012 1A4#0000000800000010
(1.138414) oc_vcan_012 1AA#7FFF000000006810
(1.138674) oc_vcan_012 1B0#000F000000015700
(1.138876) oc_vcan_012 1D0#000000000000000A
(1.140159) oc_vcan_012 166#D032002700000000
(1.140767) oc_vcan_012 39#0039000000000000
(1.141369) oc_vcan_012 158#0000000000000028
(1.141600) oc_vcan_012 161#000005500108002B
(1.141815) oc_vcan_012 191#010090A141001200
(1.141934) oc_vcan_012 305#8035000000000000
(1.142207) oc_vcan_012 164#0000C01AA8000013
(1.142375) oc_vcan_012 133#00000000B6000000
(1.142667) oc_vcan_012 136#0002000000000039
(1.142884) oc_vcan_012 13A#0000000000000037
(1.143128) oc_vcan_012 13F#000000050000003D
(1.143370) oc_vcan_012 17C#0000000010000030
(1.143506) oc_vcan_012 18E#00007A0000000000
(1.143815) oc_vcan_012 294#040B0002CF5A000E
(1.144031) oc_vcan_012 21E#03E8374522060100
(1.144313) oc_vcan_012 309#00000000000000B1
(1.144561) oc_vcan_012 428#01040000521C3E00
(1.144854) oc_vcan_012 405#0000040000000038
(1.145093) oc_vcan_012 183#0000000D0000103B
(1.145658) oc_vcan_012 143#6B6B00FF00000000
(1.147543) oc_vcan_012 95#800007F400000026
(1.150167) oc_vcan_012 166#D032003600000000
(1.151410) oc_vcan_012 158#0000000000000037
(1.151661) oc_vcan_012 161#000005500108003A
(1.151841) oc_vcan_012 191#010090A141002100
(1.152104) oc_vcan_012 164#0000C01AA8000022
(1.152269) oc_vcan_012 133#0000000089000000
(1.152560) oc_vcan_012 136#000200000000000C
(1.152816) oc_vcan_012 13A#000000000000000A
(1.153017) oc_vcan_012 13F#0000000500000000
(1.153269) oc_vcan_012 17C#0000000010000003
(1.153353) oc_vcan_012 18E#00004D0000000000
(1.153692) oc_vcan_012 1CF#80050000000F0000
(1.153743) oc_vcan_012 1DC#0200000C00000000
(1.154413) oc_vcan_012 183#0000000900001002
(1.154820) oc_vcan_012 39#000C000000000000
(1.155546) oc_vcan_012 143#6B6B00C200000000
(1.157530) oc_vcan_012 95#800007F400000035
(1.158138) oc_vcan_012 1A4#000000080000002F
(1.158373) oc_vcan_012 1AA#7FFF00000000682F
(1.158629) oc_vcan_012 1B0#000F000000016600
(1.158855) oc_vcan_012 1D0#000000000000000A
(1.160152) oc_vcan_012 166#D032000900000000
(1.161411) oc_vcan_012 158#000000000000000A
(1.161646) oc_vcan_012 161#000005500108000D
(1.161818) oc_vcan_012 191#010090A141003000
(1.161991) oc_vcan_012 18E#00005C0000000000
(1.162198) oc_vcan_012 133#0000000098000000
(1.162451) oc_vcan_012 136#000200000000001B
(1.162683) oc_vcan_012 13A#0000000000000019
(1.162947) oc_vcan_012 13F#000000050000001F
(1.163161) oc_vcan_012 164#0000C01AA8000031
(1.163408) oc_vcan_012 17C#0000000010000012
(1.164909) oc_vcan_012 183#0000000E0000101C
(1.165604) oc_vcan_012 143#6B6B00D100000000
(1.167560) oc_vcan_012 95#800007F400000008
(1.169725) oc_vcan_012 39#001B000000000000
(1.170128) oc_vcan_012 166#D032001800000000
(1.171385) oc_vcan_012 158#0000000000000019
(1.171607) oc_vcan_012 161#000005500108001C
(1.171847) oc_vcan_012 191#010090A141000300
(1.172101) oc_vcan_012 164#0000C01AA8000004
(1.172264) oc_vcan_012 133#00000000A7000000
(1.172550) oc_vcan_012 136#000200000000002A
(1.172750) oc_vcan_012 13A#0000000000000028
(1.173024) oc_vcan_012 13F#000000050000002E
(1.173236) oc_vcan_012 17C#0000000010000021
(1.173379) oc_vcan_012 18E#00006B0000000000
(1.173574) oc_vcan_012 1CF#80050000001E0000
(1.173735) oc_vcan_012 1DC#0200001B00000000
(1.174413) oc_vcan_012 183#0000000A0000102F
(1.175596) oc_vcan_012 143#6B6B00E000000000
(1.177565) oc_vcan_012 95#800007F400000017
(1.178223) oc_vcan_012 1A4#000000080000003E
(1.178483) oc_vcan_012 1AA#7FFF00000000673F
(1.178699) oc_vcan_012 1B0#000F000000017500
(1.178992) oc_vcan_012 1D0#000000000000000A
(1.180147) oc_vcan_012 166#D032002700000000
(1.181426) oc_vcan_012 158#0000000000000028
(1.181661) oc_vcan_012 161#000005500108002B
(1.181844) oc_vcan_012 191#010090A141001200
(1.182205) oc_vcan_012 164#0000C01AA8000013
(1.182375) oc_vcan_012 133#00000000B6000000
(1.182634) oc_vcan_012 136#0002000000000039
(1.182875) oc_vcan_012 13A#0000000000000037
(1.183143) oc_vcan_012 13F#000000050000003D
(1.183347) oc_vcan_012 17C#0000000010000030
(1.183496) oc_vcan_012 18E#00007A0000000000
(1.183731) oc_vcan_012 294#040B0002CF5A001D
(1.184016) oc_vcan_012 21E#03E8374522061000
(1.184730) oc_vcan_012 39#002A000000000000
(1.184982) oc_vcan_012 183#0000000F00001039
(1.185600) oc_vcan_012 143#6B6B00FF00000000
(1.187544) oc_vcan_012 95#800007F400000026
(1.190157) oc_vcan_012 166#D032003600000000
(1.191379) oc_vcan_012 158#0000000000000037
(1.191633) oc_vcan_012 161#000005500108003A
(1.191823) oc_vcan_012 191#010090A141002100
(1.192133) oc_vcan_012 164#0000C01AA8000022
(1.192282) oc_vcan_012 133#0000000089000000
(1.192532) oc_vcan_012 136#000200000000000C
(1.192828) oc_vcan_012 13A#000000000000000A
(1.193052) oc_vcan_012 13F#0000000500000000
(1.193322) oc_vcan_012 17C#0000000010000003
(1.193380) oc_vcan_012 18E#00004D0000000000
(1.193728) oc_vcan_012 1CF#80050000002D0000
(1.193814) oc_vcan_012 1DC#0200002A00000000
(1.194426) oc_vcan_012 183#0000001300001007
(1.195550) oc_vcan_012 143#6B6B00C200000000
(1.196218) oc_vcan_012 333#0000000000003C00
(1.197589) oc_vcan_012 95#800007F400000035
(1.198161) oc_vcan_012 1A4#0000000800000001
(1.198393) oc_vcan_012 1AA#7FFF000000006801
(1.198648) oc_vcan_012 1B0#000F000000014800
(1.198870) oc_vcan_012 1D0#000000000000000A
(1.200153) oc_vcan_012 166#D032000900000000
(1.201394) oc_vcan_012 158#000000000000000A
(1.201674) oc_vcan_012 161#000005500108000D
(1.201852) oc_vcan_012 191#010090A141003000
(1.202157) oc_vcan_012 133#0000000098000000
(1.202392) oc_vcan_012 136#000200000000001B
(1.202683) oc_vcan_012 13A#0000000000000019
(1.202847) oc_vcan_012 13F#000000050000001F
(1.203017) oc_vcan_012 39#0039000000000000
(1.203294) oc_vcan_012 164#0000C01AA8000031
