(0.001567) oc_vcan_011 100#4600000000000000
(0.001664) oc_vcan_011 120#06A8000000000001
(0.001711) oc_vcan_011 188#0000000000000002
(0.001771) oc_vcan_011 300#EA5FAEDCB7082682
(0.050365) oc_vcan_011 100#3C00000000000004
(0.050488) oc_vcan_011 188#0000000000000005
(0.070334) oc_vcan_011 120#067E000000000006
(0.100272) oc_vcan_011 100#4900000000000007
(0.100354) oc_vcan_011 188#0000000000000008
(0.140305) oc_vcan_011 120#0599000000000009
(0.150238) oc_vcan_011 100#4B0000000000000A
(0.150308) oc_vcan_011 188#000000000000000B
(0.200460) oc_vcan_011 100#460000000000000C
(0.200538) oc_vcan_011 188#000000000000000D
(0.210277) oc_vcan_011 120#06C300000000000E
(0.250289) oc_vcan_011 100#470000000000000F
(0.250376) oc_vcan_011 188#0000000000000010
(0.250432) oc_vcan_011 300#6C9B23A19002D5E5
(0.280387) oc_vcan_011 120#06BA000000000012
(0.300402) oc_vcan_011 100#4B00000000000013
(0.300480) oc_vcan_011 188#0000000000000014
(0.350320) oc_vcan_011 100#3D00000000000015
(0.350424) oc_vcan_011 188#0000000000000016
(0.350472) oc_vcan_011 120#060C000000000017
(0.400313) oc_vcan_011 100#3D00000000000018
(0.400462) oc_vcan_011 188#0000000000000019
(0.420429) oc_vcan_011 120#073F00000000001A
(0.450293) oc_vcan_011 100#3D0000000000001B
(0.450370) oc_vcan_011 188#000000000000001C
(0.490345) oc_vcan_011 120#06C100000000001D
(0.500323) oc_vcan_011 100#430000000000001E
(0.500451) oc_vcan_011 188#000000000000001F
(0.500509) oc_vcan_011 300#A7F398DA3378A94E
(0.550306) oc_vcan_011 100#3B00000000000021
(0.550397) oc_vcan_011 188#0000000000000022
(0.560263) oc_vcan_011 120#0661000000000023
(0.600302) oc_vcan_011 100#3B00000000000024
(0.600407) oc_vcan_011 188#0000000000000025
(0.630317) oc_vcan_011 120#071D000000000026
(0.650357) oc_vcan_011 100#4900000000000027
(0.650505) oc_vcan_011 188#0000000000000028
(0.700363) oc_vcan_011 100#3A00000000000029
(0.700505) oc_vcan_011 188#000000000000002A
(0.700586) oc_vcan_011 120#059600000000002B
(0.750379) oc_vcan_011 100#490000000000002C
(0.750484) oc_vcan_011 188#000000000000002D
(0.750536) oc_vcan_011 300#2CD5437C5F60EAE5
(0.770331) oc_vcan_011 120#05D100000000002F
(0.800254) oc_vcan_011 100#3E00000000000030
(0.800328) oc_vcan_011 188#0000000000000031
(0.840281) oc_vcan_011 120#060B000000000032
(0.850297) oc_vcan_011 100#4A00000000000033
(0.850405) oc_vcan_011 188#0000000000000034
(0.900292) oc_vcan_011 100#3A00000000000035
(0.900373) oc_vcan_011 188#0000000000000036
(0.910314) oc_vcan_011 120#0741000000000037
(0.950284) oc_vcan_011 100#4600000000000038
(0.950392) oc_vcan_011 188#0000000000000039
(0.980314) oc_vcan_011 120#05FF00000000003A
(1.000405) oc_vcan_011 100#490000000000003B
(1.000484) oc_vcan_011 188#000000000000003C
(1.000519) oc_vcan_011 300#9749E4E4F56D71EF
(1.050268) oc_vcan_011 100#450000000000003E
(1.050369) oc_vcan_011 188#000000000000003F
(1.050403) oc_vcan_011 120#0674000000000040
(1.100335) oc_vcan_011 100#4700000000000041
(1.100475) oc_vcan_011 188#0000000000000042
(1.120370) oc_vcan_011 120#0641000000000043
(1.150409) oc_vcan_011 100#4400000000000044
(1.150522) oc_vcan_011 188#0000000000000045
(1.190305) oc_vcan_011 120#061A000000000046
(1.200311) oc_vcan_011 100#3D00000000000047
(1.200389) oc_vcan_011 188#0000000000000048
(1.250282) oc_vcan_011 100#4700000000000049
(1.250363) oc_vcan_011 188#000000000000004A
(1.250401) oc_vcan_011 300#5C8FEB45DC3927CA
(1.260320) oc_vcan_011 120#061900000000004C
(1.300323) oc_vcan_011 100#4A0000000000004D
(1.300435) oc_vcan_011 188#000000000000004E
(1.330296) oc_vcan_011 120#076300000000004F
(1.350362) oc_vcan_011 100#3E00000000000050
(1.350455) oc_vcan_011 188#0000000000000051
(1.400316) oc_vcan_011 100#3B00000000000052
(1.400437) oc_vcan_011 188#0000000000000053
(1.400495) oc_vcan_011 120#069F000000000054
(1.450274) oc_vcan_011 100#4700000000000055
(1.450355) oc_vcan_011 188#0000000000000056
(1.470289) oc_vcan_011 120#0737000000000057
(1.500299) oc_vcan_011 100#3C00000000000058
(1.500405) oc_vcan_011 188#0000000000000059
(1.500445) oc_vcan_011 300#E9765888083E8068
(1.540408) oc_vcan_011 120#06FD00000000005B
(1.550380) oc_vcan_011 100#420000000000005C
(1.550489) oc_vcan_011 188#000000000000005D
(1.600299) oc_vcan_011 100#430000000000005E
(1.600408) oc_vcan_011 188#000000000000005F
(1.610235) oc_vcan_011 120#058F000000000060
(1.650315) oc_vcan_011 100#3C00000000000061
(1.650396) oc_vcan_011 188#0000000000000062
(1.680347) oc_vcan_011 120#0634000000000063
(1.700344) oc_vcan_011 100#4A00000000000064
(1.700446) oc_vcan_011 188#0000000000000065
(1.750210) oc_vcan_011 100#4A00000000000066
(1.750332) oc_vcan_011 188#0000000000000067
(1.750413) oc_vcan_011 120#05DC000000000068
(1.750495) oc_vcan_011 300#B15412A48AFDE110
(1.800214) oc_vcan_011 100#490000000000006A
(1.800310) oc_vcan_011 188#000000000000006B
(1.820238) oc_vcan_011 120#06BF00000000006C
(1.850274) oc_vcan_011 100#4B0000000000006D
(1.850376) oc_vcan_011 188#000000000000006E
(1.890319) oc_vcan_011 120#06D900000000006F
(1.900232) oc_vcan_011 100#4700000000000070
(1.900308) oc_vcan_011 188#0000000000000071
(1.950260) oc_vcan_011 100#3F00000000000072
(1.950342) oc_vcan_011 188#0000000000000073
(1.960335) oc_vcan_011 120#0653000000000074
(2.000321) oc_vcan_011 100#3F00000000000075
(2.000417) oc_vcan_011 188#0000000000000076
(2.000462) oc_vcan_011 300#7153E1DE28ADC5FA
(2.030297) oc_vcan_011 120#05C8000000000078
(2.050296) oc_vcan_011 100#4B00000000000079
(2.050430) oc_vcan_011 188#000000000000007A
(2.100317) oc_vcan_011 100#490000000000007B
(2.100397) oc_vcan_011 188#000000000000007C
(2.100436) oc_vcan_011 120#073200000000007D
(2.150279) oc_vcan_011 100#3A0000000000007E
(2.150371) oc_vcan_011 188#000000000000007F
(2.170313) oc_vcan_011 120#0757000000000080
(2.200309) oc_vcan_011 100#4A00000000000081
(2.200418) oc_vcan_011 188#0000000000000082
(2.240282) oc_vcan_011 120#06B5000000000083
(2.250197) oc_vcan_011 100#4400000000000084
(2.250288) oc_vcan_011 188#0000000000000085
(2.250331) oc_vcan_011 300#CEDEE777B9E10853
(2.300279) oc_vcan_011 100#3A00000000000087
(2.300366) oc_vcan_011 188#0000000000000088
(2.310199) oc_vcan_011 120#05AB000000000089
(2.350327) oc_vcan_011 100#430000000000008A
(2.350428) oc_vcan_011 188#000000000000008B
(2.380270) oc_vcan_011 120#076200000000008C
(2.400318) oc_vcan_011 100#3B0000000000008D
(2.400418) oc_vcan_011 188#000000000000008E
(2.450334) oc_vcan_011 100#400000000000008F
(2.450460) oc_vcan_011 188#0000000000000090
(2.450550) oc_vcan_011 120#06F0000000000091
(2.500358) oc_vcan_011 100#3F00000000000092
(2.500491) oc_vcan_011 188#0000000000000093
(2.500560) oc_vcan_011 300#F111E609E9A7CEAF
(2.520383) oc_vcan_011 120#06E0000000000095
(2.550297) oc_vcan_011 100#4800000000000096
(2.550422) oc_vcan_011 188#0000000000000097
(2.590260) oc_vcan_011 120#0701000000000098
(2.600404) oc_vcan_011 100#3A00000000000099
(2.600544) oc_vcan_011 188#000000000000009A
(2.650347) oc_vcan_011 100#470000000000009B
(2.650473) oc_vcan_011 188#000000000000009C
(2.660276) oc_vcan_011 120#071700000000009D
(2.700341) oc_vcan_011 100#430000000000009E
(2.700420) oc_vcan_011 188#000000000000009F
(2.730289) oc_vcan_011 120#059C0000000000A0
(2.750250) oc_vcan_011 100#3E000000000000A1
(2.750329) oc_vcan_011 188#00000000000000A2
(2.750367) oc_vcan_011 300#2A92DD7E5638D8C2
(2.800363) oc_vcan_011 100#40000000000000A4
(2.800490) oc_vcan_011 188#00000000000000A5
(2.800541) oc_vcan_011 120#06FC0000000000A6
(2.850298) oc_vcan_011 100#3F000000000000A7
(2.850377) oc_vcan_011 188#00000000000000A8
(2.870262) oc_vcan_011 120#068D0000000000A9
(2.900269) oc_vcan_011 100#3B000000000000AA
(2.900347) oc_vcan_011 188#00000000000000AB
(2.940298) oc_vcan_011 120#06D30000000000AC
(2.950282) oc_vcan_011 100#43000000000000AD
(2.950379) oc_vcan_011 188#00000000000000AE
(3.000299) oc_vcan_011 100#48000000000000AF
(3.000402) oc_vcan_011 188#00000000000000B0
(3.000461) oc_vcan_011 300#90E8E414A8C1AECA
(3.010269) oc_vcan_011 120#05910000000000B2
(3.050297) oc_vcan_011 100#45000000000000B3
(3.050423) oc_vcan_011 188#00000000000000B4
(3.080326) oc_vcan_011 120#07550000000000B5
(3.100307) oc_vcan_011 100#42000000000000B6
(3.100397) oc_vcan_011 188#00000000000000B7
(3.150302) oc_vcan_011 100#45000000000000B8
(3.150396) oc_vcan_011 188#00000000000000B9
(3.150435) oc_vcan_011 120#05FF0000000000BA
(3.200378) oc_vcan_011 100#40000000000000BB
(3.200491) oc_vcan_011 188#00000000000000BC
(3.220320) oc_vcan_011 120#06270000000000BD
(3.250376) oc_vcan_011 100#44000000000000BE
(3.250477) oc_vcan_011 188#00000000000000BF
(3.250526) oc_vcan_011 300#182518E83498FD65
(3.290282) oc_vcan_011 120#07210000000000C1
(3.300179) oc_vcan_011 100#3E000000000000C2
(3.300259) oc_vcan_011 188#00000000000000C3
(3.350335) oc_vcan_011 100#3C000000000000C4
(3.350420) oc_vcan_011 188#00000000000000C5
(3.360290) oc_vcan_011 120#05940000000000C6
(3.400289) oc_vcan_011 100#3C000000000000C7
(3.400399) oc_vcan_011 188#00000000000000C8
(3.430322) oc_vcan_011 120#06BB0000000000C9
(3.450315) oc_vcan_011 100#46000000000000CA
(3.450400) oc_vcan_011 188#00000000000000CB
(3.500327) oc_vcan_011 100#43000000000000CC
(3.500427) oc_vcan_011 188#00000000000000CD
(3.500472) oc_vcan_011 120#06600000000000CE
(3.500508) oc_vcan_011 300#566C69B51F1ABE59
(3.550317) oc_vcan_011 100#43000000000000D0
(3.550524) oc_vcan_011 188#00000000000000D1
(3.570363) oc_vcan_011 120#05ED0000000000D2
(3.600251) oc_vcan_011 100#41000000000000D3
(3.600332) oc_vcan_011 188#00000000000000D4
(3.640318) oc_vcan_011 120#05A30000000000D5
(3.650198) oc_vcan_011 100#41000000000000D6
(3.650268) oc_vcan_011 188#00000000000000D7
(3.700266) oc_vcan_011 100#4A000000000000D8
(3.700352) oc_vcan_011 188#00000000000000D9
(3.710180) oc_vcan_011 120#069E0000000000DA
(3.750267) oc_vcan_011 100#3F000000000000DB
(3.750349) oc_vcan_011 188#00000000000000DC
(3.750411) oc_vcan_011 300#6589DCC105E74AC4
(3.780298) oc_vcan_011 120#06640000000000DE
(3.800279) oc_vcan_011 100#3B000000000000DF
(3.800395) oc_vcan_011 188#00000000000000E0
(3.850300) oc_vcan_011 100#4A000000000000E1
(3.850423) oc_vcan_011 188#00000000000000E2
(3.850488) oc_vcan_011 120#074D0000000000E3
(3.900369) oc_vcan_011 100#40000000000000E4
(3.900492) oc_vcan_011 188#00000000000000E5
(3.920363) oc_vcan_011 120#05D10000000000E6
(3.950264) oc_vcan_011 100#41000000000000E7
(3.950369) oc_vcan_011 188#00000000000000E8
(3.990246) oc_vcan_011 120#069E0000000000E9
(4.003359) oc_vcan_011 100#3B000000000000EA
(4.003461) oc_vcan_011 188#00000000000000EB
(4.003521) oc_vcan_011 300#132E8A4D1B2F79FC
(4.050255) oc_vcan_011 100#44000000000000ED
(4.050355) oc_vcan_011 188#00000000000000EE
(4.060267) oc_vcan_011 120#06DE0000000000EF
(4.100385) oc_vcan_011 100#47000000000000F0
(4.100500) oc_vcan_011 188#00000000000000F1
(4.130389) oc_vcan_011 120#07540000000000F2
(4.150300) oc_vcan_011 100#44000000000000F3
(4.150403) oc_vcan_011 188#00000000000000F4
(4.200345) oc_vcan_011 100#43000000000000F5
(4.200423) oc_vcan_011 188#00000000000000F6
(4.200457) oc_vcan_011 120#062D0000000000F7
(4.250382) oc_vcan_011 100#43000000000000F8
(4.250564) oc_vcan_011 188#00000000000000F9
(4.250625) oc_vcan_011 300#8FA23B6FB04BC7C2
(4.270357) oc_vcan_011 120#068C0000000000FB
(4.300308) oc_vcan_011 100#46000000000000FC
(4.300387) oc_vcan_011 188#00000000000000FD
(4.340330) oc_vcan_011 120#06F80000000000FE
(4.350347) oc_vcan_011 100#3B000000000000FF
(4.350484) oc_vcan_011 188#0000000000000000
(4.400320) oc_vcan_011 100#4200000000000001
(4.400451) oc_vcan_011 188#0000000000000002
(4.410325) oc_vcan_011 120#069A000000000003
(4.450294) oc_vcan_011 100#4700000000000004
(4.450398) oc_vcan_011 188#0000000000000005
(4.480333) oc_vcan_011 120#06D4000000000006
(4.500323) oc_vcan_011 100#4700000000000007
(4.500417) oc_vcan_011 188#0000000000000008
(4.500460) oc_vcan_011 300#27D2946D442ACD51
(4.550376) oc_vcan_011 100#3F0000000000000A
(4.550485) oc_vcan_011 188#000000000000000B
(4.550538) oc_vcan_011 120#05C400000000000C
(4.600328) oc_vcan_011 100#3C0000000000000D
(4.600451) oc_vcan_011 188#000000000000000E
(4.620326) oc_vcan_011 120#05A600000000000F
(4.650257) oc_vcan_011 100#4700000000000010
(4.650346) oc_vcan_011 188#0000000000000011
(4.690329) oc_vcan_011 120#074B000000000012
(4.700251) oc_vcan_011 100#3A00000000000013
(4.700326) oc_vcan_011 188#0000000000000014
(4.750253) oc_vcan_011 100#4200000000000015
(4.750364) oc_vcan_011 188#0000000000000016
(4.750412) oc_vcan_011 300#1A5598F29D580F67
(4.760269) oc_vcan_011 120#075F000000000018
(4.800227) oc_vcan_011 100#4900000000000019
(4.800302) oc_vcan_011 188#000000000000001A
(4.830365) oc_vcan_011 120#065000000000001B
(4.850266) oc_vcan_011 100#4A0000000000001C
(4.850365) oc_vcan_011 188#000000000000001D
(4.900367) oc_vcan_011 100#3B0000000000001E
(4.900493) oc_vcan_011 188#000000000000001F
(4.900539) oc_vcan_011 120#0734000000000020
(4.950280) oc_vcan_011 100#3E00000000000021
(4.950371) oc_vcan_011 188#0000000000000022
(4.970305) oc_vcan_011 120#073F000000000023
(5.000343) oc_vcan_011 100#3D00000000000024
(5.000433) oc_vcan_011 188#0000000000000025
(5.000500) oc_vcan_011 300#3863F519B5C28500
(5.040285) oc_vcan_011 120#06EA000000000027
(5.050218) oc_vcan_011 100#3A00000000000028
(5.050325) oc_vcan_011 188#0000000000000029
(5.100384) oc_vcan_011 100#460000000000002A
(5.100498) oc_vcan_011 188#000000000000002B
(5.110184) oc_vcan_011 120#06C700000000002C
(5.150277) oc_vcan_011 100#4B0000000000002D
(5.150384) oc_vcan_011 188#000000000000002E
(5.180299) oc_vcan_011 120#073800000000002F
(5.200334) oc_vcan_011 100#4A00000000000030
(5.200427) oc_vcan_011 188#0000000000000031
(5.250257) oc_vcan_011 100#4900000000000032
(5.250361) oc_vcan_011 188#0000000000000033
(5.250396) oc_vcan_011 120#05AF000000000034
(5.250447) oc_vcan_011 300#DF410D7BE0512C02
(5.300265) oc_vcan_011 100#4A00000000000036
(5.300373) oc_vcan_011 188#0000000000000037
(5.320284) oc_vcan_011 120#06AB000000000038
(5.350301) oc_vcan_011 100#4100000000000039
(5.350387) oc_vcan_011 188#000000000000003A
(5.390312) oc_vcan_011 120#069700000000003B
(5.400285) oc_vcan_011 100#430000000000003C
(5.400393) oc_vcan_011 188#000000000000003D
(5.450268) oc_vcan_011 100#450000000000003E
(5.450365) oc_vcan_011 188#000000000000003F
(5.460342) oc_vcan_011 120#0613000000000040
(5.500296) oc_vcan_011 100#4100000000000041
(5.500377) oc_vcan_011 188#0000000000000042
(5.500437) oc_vcan_011 300#BDC87F13A58BC784
(5.530243) oc_vcan_011 120#05C5000000000044
(5.550229) oc_vcan_011 100#3A00000000000045
(5.550302) oc_vcan_011 188#0000000000000046
(5.600324) oc_vcan_011 100#3E00000000000047
(5.600437) oc_vcan_011 188#0000000000000048
(5.600495) oc_vcan_011 120#0735000000000049
(5.650279) oc_vcan_011 100#4A0000000000004A
(5.650359) oc_vcan_011 188#000000000000004B
(5.670292) oc_vcan_011 120#05A900000000004C
(5.700267) oc_vcan_011 100#3D0000000000004D
(5.700344) oc_vcan_011 188#000000000000004E
(5.740342) oc_vcan_011 120#06AE00000000004F
(5.750347) oc_vcan_011 100#4800000000000050
(5.750455) oc_vcan_011 188#0000000000000051
(5.750519) oc_vcan_011 300#F5664A0B39CF6F57
(5.800325) oc_vcan_011 100#4B00000000000053
(5.800412) oc_vcan_011 188#0000000000000054
(5.810569) oc_vcan_011 120#06DA000000000055
(5.850286) oc_vcan_011 100#4B00000000000056
(5.850372) oc_vcan_011 188#0000000000000057
(5.880374) oc_vcan_011 120#069F000000000058
(5.900431) oc_vcan_011 100#3F00000000000059
(5.900538) oc_vcan_011 188#000000000000005A
(5.950283) oc_vcan_011 100#4A0000000000005B
(5.950365) oc_vcan_011 188#000000000000005C
(5.950413) oc_vcan_011 120#061900000000005D
(6.000323) oc_vcan_011 100#420000000000005E
(6.000430) oc_vcan_011 188#000000000000005F
(6.000471) oc_vcan_011 300#6C2F8B66CF8D25C8
(6.020361) oc_vcan_011 120#0638000000000061
(6.050300) oc_vcan_011 100#4800000000000062
(6.050374) oc_vcan_011 188#0000000000000063
(6.090288) oc_vcan_011 120#0697000000000064
(6.100285) oc_vcan_011 100#4B00000000000065
(6.100365) oc_vcan_011 188#0000000000000066
(6.150233) oc_vcan_011 100#4500000000000067
(6.150319) oc_vcan_011 188#0000000000000068
(6.160374) oc_vcan_011 120#0675000000000069
(6.200340) oc_vcan_011 100#470000000000006A
(6.200418) oc_vcan_011 188#000000000000006B
(6.231314) oc_vcan_011 120#06A400000000006C
(6.250280) oc_vcan_011 100#430000000000006D
(6.250383) oc_vcan_011 188#000000000000006E
(6.250421) oc_vcan_011 300#47F34898E14DC991
(6.300264) oc_vcan_011 100#3F00000000000070
(6.300339) oc_vcan_011 188#0000000000000071
(6.300371) oc_vcan_011 120#0609000000000072
(6.350353) oc_vcan_011 100#3C00000000000073
(6.350431) oc_vcan_011 188#0000000000000074
(6.370321) oc_vcan_011 120#05F8000000000075
(6.400337) oc_vcan_011 100#3A00000000000076
(6.400448) oc_vcan_011 188#0000000000000077
(6.440342) oc_vcan_011 120#05F9000000000078
(6.450369) oc_vcan_011 100#3D00000000000079
(6.450475) oc_vcan_011 188#000000000000007A
(6.500399) oc_vcan_011 100#4A0000000000007B
(6.500491) oc_vcan_011 188#000000000000007C
(6.500531) oc_vcan_011 300#FF0548036C1D0C50
(6.510393) oc_vcan_011 120#05C800000000007E
(6.550349) oc_vcan_011 100#400000000000007F
(6.550450) oc_vcan_011 188#0000000000000080
(6.580375) oc_vcan_011 120#0736000000000081
(6.600340) oc_vcan_011 100#4900000000000082
(6.600444) oc_vcan_011 188#0000000000000083
(6.650291) oc_vcan_011 100#4100000000000084
(6.650384) oc_vcan_011 188#0000000000000085
(6.650421) oc_vcan_011 120#0651000000000086
(6.700293) oc_vcan_011 100#4100000000000087
(6.700366) oc_vcan_011 188#0000000000000088
(6.720273) oc_vcan_011 120#074B000000000089
(6.750235) oc_vcan_011 100#3B0000000000008A
(6.750321) oc_vcan_011 188#000000000000008B
(6.750361) oc_vcan_011 300#8474872B99AB12E6
(6.790349) oc_vcan_011 120#06D000000000008D
(6.800370) oc_vcan_011 100#3D0000000000008E
(6.800508) oc_vcan_011 188#000000000000008F
(6.850265) oc_vcan_011 100#4300000000000090
(6.850380) oc_vcan_011 188#0000000000000091
(6.860341) oc_vcan_011 120#0727000000000092
(6.900334) oc_vcan_011 100#4700000000000093
(6.900445) oc_vcan_011 188#0000000000000094
(6.930410) oc_vcan_011 120#06C1000000000095
(6.950338) oc_vcan_011 100#3B00000000000096
(6.950443) oc_vcan_011 188#0000000000000097
(7.000293) oc_vcan_011 100#3D00000000000098
(7.000415) oc_vcan_011 188#0000000000000099
(7.000463) oc_vcan_011 120#06B000000000009A
(7.000501) oc_vcan_011 300#F2C5493ADBF30676
(7.050297) oc_vcan_011 100#4B0000000000009C
(7.050388) oc_vcan_011 188#000000000000009D
(7.070325) oc_vcan_011 120#071300000000009E
(7.100285) oc_vcan_011 100#3F0000000000009F
(7.100363) oc_vcan_011 188#00000000000000A0
(7.140343) oc_vcan_011 120#05B30000000000A1
(7.150346) oc_vcan_011 100#44000000000000A2
(7.150441) oc_vcan_011 188#00000000000000A3
(7.200344) oc_vcan_011 100#45000000000000A4
(7.200420) oc_vcan_011 188#00000000000000A5
(7.210286) oc_vcan_011 120#075D0000000000A6
(7.250359) oc_vcan_011 100#41000000000000A7
(7.250463) oc_vcan_011 188#00000000000000A8
(7.250510) oc_vcan_011 300#50ED10D3C3FBBB2F
(7.280335) oc_vcan_011 120#06C20000000000AA
(7.300309) oc_vcan_011 100#4A000000000000AB
(7.300407) oc_vcan_011 188#00000000000000AC
(7.350362) oc_vcan_011 100#4B000000000000AD
(7.350463) oc_vcan_011 188#00000000000000AE
(7.350509) oc_vcan_011 120#075C0000000000AF
(7.400301) oc_vcan_011 100#46000000000000B0
(7.400413) oc_vcan_011 188#00000000000000B1
(7.420424) oc_vcan_011 120#06670000000000B2
(7.450322) oc_vcan_011 100#44000000000000B3
(7.450445) oc_vcan_011 188#00000000000000B4
(7.490366) oc_vcan_011 120#06BA0000000000B5
(7.500311) oc_vcan_011 100#44000000000000B6
(7.500418) oc_vcan_011 188#00000000000000B7
(7.500481) oc_vcan_011 300#680B426A450D90CF
(7.550294) oc_vcan_011 100#44000000000000B9
(7.550404) oc_vcan_011 188#00000000000000BA
(7.560212) oc_vcan_011 120#05C90000000000BB
(7.600240) oc_vcan_011 100#42000000000000BC
(7.600322) oc_vcan_011 188#00000000000000BD
(7.630293) oc_vcan_011 120#05F50000000000BE
(7.650256) oc_vcan_011 100#4A000000000000BF
(7.650338) oc_vcan_011 188#00000000000000C0
(7.700347) oc_vcan_011 100#3F000000000000C1
(7.700433) oc_vcan_011 188#00000000000000C2
(7.700479) oc_vcan_011 120#06730000000000C3
(7.750308) oc_vcan_011 100#47000000000000C4
(7.750411) oc_vcan_011 188#00000000000000C5
(7.750449) oc_vcan_011 300#01E9070EA9DEAD8E
(7.770265) oc_vcan_011 120#06EC0000000000C7
(7.800298) oc_vcan_011 100#3B000000000000C8
(7.800385) oc_vcan_011 188#00000000000000C9
(7.840483) oc_vcan_011 120#06590000000000CA
(7.850341) oc_vcan_011 100#43000000000000CB
(7.850464) oc_vcan_011 188#00000000000000CC
(7.900304) oc_vcan_011 100#45000000000000CD
(7.900387) oc_vcan_011 188#00000000000000CE
(7.910299) oc_vcan_011 120#05A60000000000CF
(7.950337) oc_vcan_011 100#49000000000000D0
(7.950442) oc_vcan_011 188#00000000000000D1
(7.980348) oc_vcan_011 120#06170000000000D2
(8.000281) oc_vcan_011 100#4A000000000000D3
(8.000374) oc_vcan_011 188#00000000000000D4
(8.000418) oc_vcan_011 300#07D0422BF716842C
(8.050325) oc_vcan_011 100#4B000000000000D6
(8.050428) oc_vcan_011 188#00000000000000D7
(8.050465) oc_vcan_011 120#05E80000000000D8
(8.100361) oc_vcan_011 100#3A000000000000D9
(8.100474) oc_vcan_011 188#00000000000000DA
(8.120303) oc_vcan_011 120#06490000000000DB
(8.150377) oc_vcan_011 100#3A000000000000DC
(8.150469) oc_vcan_011 188#00000000000000DD
(8.190324) oc_vcan_011 120#07540000000000DE
(8.200266) oc_vcan_011 100#3B000000000000DF
(8.200337) oc_vcan_011 188#00000000000000E0
(8.250406) oc_vcan_011 100#47000000000000E1
(8.250502) oc_vcan_011 188#00000000000000E2
(8.250545) oc_vcan_011 300#939F4A22DED81179
(8.260486) oc_vcan_011 120#05DF0000000000E4
(8.300412) oc_vcan_011 100#3E000000000000E5
(8.300527) oc_vcan_011 188#00000000000000E6
(8.330384) oc_vcan_011 120#057F0000000000E7
(8.350334) oc_vcan_011 100#44000000000000E8
(8.350413) oc_vcan_011 188#00000000000000E9
(8.400334) oc_vcan_011 100#4B000000000000EA
(8.400409) oc_vcan_011 188#00000000000000EB
(8.400467) oc_vcan_011 120#06260000000000EC
(8.450256) oc_vcan_011 100#46000000000000ED
(8.450400) oc_vcan_011 188#00000000000000EE
(8.472337) oc_vcan_011 120#05A40000000000EF
(8.500292) oc_vcan_011 100#44000000000000F0
(8.500408) oc_vcan_011 188#00000000000000F1
(8.500461) oc_vcan_011 300#A8DAF0BF3F2D4D1F
(8.540400) oc_vcan_011 120#07610000000000F3
(8.550309) oc_vcan_011 100#4B000000000000F4
(8.550388) oc_vcan_011 188#00000000000000F5
(8.600347) oc_vcan_011 100#3F000000000000F6
(8.600434) oc_vcan_011 188#00000000000000F7
(8.610213) oc_vcan_011 120#06BD0000000000F8
(8.650322) oc_vcan_011 100#3B000000000000F9
(8.650418) oc_vcan_011 188#00000000000000FA
(8.680317) oc_vcan_011 120#06620000000000FB
(8.700340) oc_vcan_011 100#4A000000000000FC
(8.700434) oc_vcan_011 188#00000000000000FD
(8.750297) oc_vcan_011 100#3F000000000000FE
(8.750387) oc_vcan_011 188#00000000000000FF
(8.750444) oc_vcan_011 120#0706000000000000
(8.750495) oc_vcan_011 300#9C721E28CC9B0692
(8.800284) oc_vcan_011 100#4200000000000002
(8.800363) oc_vcan_011 188#0000000000000003
(8.820333) oc_vcan_011 120#06AD000000000004
(8.850411) oc_vcan_011 100#4B00000000000005
(8.850492) oc_vcan_011 188#0000000000000006
(8.890401) oc_vcan_011 120#065C000000000007
(8.900400) oc_vcan_011 100#4700000000000008
(8.900508) oc_vcan_011 188#0000000000000009
(8.950375) oc_vcan_011 100#450000000000000A
(8.950472) oc_vcan_011 188#000000000000000B
(8.960324) oc_vcan_011 120#06D100000000000C
(9.000371) oc_vcan_011 100#3F0000000000000D
(9.000474) oc_vcan_011 188#000000000000000E
(9.000528) oc_vcan_011 300#0C3974F88C95D3A3
(9.030408) oc_vcan_011 120#06DC000000000010
(9.050315) oc_vcan_011 100#4300000000000011
(9.050427) oc_vcan_011 188#0000000000000012
(9.100341) oc_vcan_011 100#4200000000000013
(9.100419) oc_vcan_011 188#0000000000000014
(9.100451) oc_vcan_011 120#0699000000000015
(9.150391) oc_vcan_011 100#4B00000000000016
(9.150497) oc_vcan_011 188#0000000000000017
(9.170353) oc_vcan_011 120#0761000000000018
(9.200314) oc_vcan_011 100#4A00000000000019
(9.200401) oc_vcan_011 188#000000000000001A
(9.240320) oc_vcan_011 120#05D700000000001B
(9.250376) oc_vcan_011 100#400000000000001C
(9.250483) oc_vcan_011 188#000000000000001D
(9.250572) oc_vcan_011 300#25A00BAEB2DAF407
(9.300327) oc_vcan_011 100#4B0000000000001F
(9.300434) oc_vcan_011 188#0000000000000020
(9.310306) oc_vcan_011 120#060F000000000021
(9.350275) oc_vcan_011 100#3D00000000000022
(9.350436) oc_vcan_011 188#0000000000000023
(9.380277) oc_vcan_011 120#0683000000000024
(9.400323) oc_vcan_011 100#4900000000000025
(9.400408) oc_vcan_011 188#0000000000000026
(9.450305) oc_vcan_011 100#4200000000000027
(9.450398) oc_vcan_011 188#0000000000000028
(9.450434) oc_vcan_011 120#0679000000000029
(9.500289) oc_vcan_011 100#3A0000000000002A
(9.500395) oc_vcan_011 188#000000000000002B
(9.500453) oc_vcan_011 300#E95380CF35C0B704
(9.520325) oc_vcan_011 120#06F400000000002D
(9.550378) oc_vcan_011 100#480000000000002E
(9.550584) oc_vcan_011 188#000000000000002F
(9.590298) oc_vcan_011 120#06DC000000000030
(9.600217) oc_vcan_011 100#4B00000000000031
(9.600289) oc_vcan_011 188#0000000000000032
(9.650351) oc_vcan_011 100#4B00000000000033
(9.650433) oc_vcan_011 188#0000000000000034
(9.660281) oc_vcan_011 120#073F000000000035
(9.700361) oc_vcan_011 100#4700000000000036
(9.700465) oc_vcan_011 188#0000000000000037
(9.730306) oc_vcan_011 120#0703000000000038
(9.750340) oc_vcan_011 100#4400000000000039
(9.750447) oc_vcan_011 188#000000000000003A
(9.750502) oc_vcan_011 300#ED05610B9976844E
(9.800257) oc_vcan_011 100#460000000000003C
(9.800348) oc_vcan_011 188#000000000000003D
(9.800394) oc_vcan_011 120#070600000000003E
(9.850315) oc_vcan_011 100#4B0000000000003F
(9.850408) oc_vcan_011 188#0000000000000040
(9.870399) oc_vcan_011 120#0725000000000041
(9.900321) oc_vcan_011 100#4700000000000042
(9.900456) oc_vcan_011 188#0000000000000043
(9.940331) oc_vcan_011 120#0595000000000044
(9.950267) oc_vcan_011 100#4600000000000045
(9.950387) oc_vcan_011 188#0000000000000046
(10.000395) oc_vcan_011 100#3C00000000000047
(10.000498) oc_vcan_011 188#0000000000000048
(10.000549) oc_vcan_011 300#50C57792DA1CF57C
(10.010339) oc_vcan_011 120#05DA00000000004A
(10.050338) oc_vcan_011 100#430000000000004B
(10.050415) oc_vcan_011 188#000000000000004C
(10.080399) oc_vcan_011 120#058A00000000004D
(10.100392) oc_vcan_011 100#3D0000000000004E
(10.100494) oc_vcan_011 188#000000000000004F
(10.150366) oc_vcan_011 100#4000000000000050
(10.150463) oc_vcan_011 188#0000000000000051
(10.150501) oc_vcan_011 120#0614000000000052
(10.200309) oc_vcan_011 100#4400000000000053
(10.200431) oc_vcan_011 188#0000000000000054
(10.220281) oc_vcan_011 120#0693000000000055
(10.250314) oc_vcan_011 100#4500000000000056
(10.250409) oc_vcan_011 188#0000000000000057
(10.250449) oc_vcan_011 300#E7B016A31F7F0ECE
(10.290341) oc_vcan_011 120#0681000000000059
(10.300323) oc_vcan_011 100#3A0000000000005A
(10.300460) oc_vcan_011 188#000000000000005B
(10.350441) oc_vcan_011 100#3A0000000000005C
(10.350604) oc_vcan_011 188#000000000000005D
(10.360280) oc_vcan_011 120#073100000000005E
(10.400360) oc_vcan_011 100#4B0000000000005F
(10.400449) oc_vcan_011 188#0000000000000060
(10.430321) oc_vcan_011 120#0760000000000061
(10.450351) oc_vcan_011 100#4000000000000062
(10.450434) oc_vcan_011 188#0000000000000063
(10.500339) oc_vcan_011 100#3F00000000000064
(10.500435) oc_vcan_011 188#0000000000000065
(10.500470) oc_vcan_011 120#0665000000000066
(10.500504) oc_vcan_011 300#B21546870AF5F56F
(10.550314) oc_vcan_011 100#4800000000000068
(10.550395) oc_vcan_011 188#0000000000000069
(10.570342) oc_vcan_011 120#069000000000006A
(10.600293) oc_vcan_011 100#4A0000000000006B
(10.600371) oc_vcan_011 188#000000000000006C
(10.640242) oc_vcan_011 120#058F00000000006D
(10.650259) oc_vcan_011 100#4A0000000000006E
(10.650355) oc_vcan_011 188#000000000000006F
(10.700253) oc_vcan_011 100#4900000000000070
(10.700361) oc_vcan_011 188#0000000000000071
(10.710231) oc_vcan_011 120#068F000000000072
(10.750207) oc_vcan_011 100#4B00000000000073
(10.750283) oc_vcan_011 188#0000000000000074
(10.750337) oc_vcan_011 300#53D9711F62CFBD10
(10.780222) oc_vcan_011 120#063E000000000076
(10.800222) oc_vcan_011 100#4000000000000077
(10.800314) oc_vcan_011 188#0000000000000078
(10.850277) oc_vcan_011 100#4100000000000079
(10.850356) oc_vcan_011 188#000000000000007A
(10.850391) oc_vcan_011 120#062500000000007B
(10.900262) oc_vcan_011 100#490000000000007C
(10.900353) oc_vcan_011 188#000000000000007D
(10.920299) oc_vcan_011 120#070700000000007E
(10.950288) oc_vcan_011 100#460000000000007F
(10.950411) oc_vcan_011 188#0000000000000080
(10.990409) oc_vcan_011 120#0756000000000081
(11.000333) oc_vcan_011 100#4A00000000000082
(11.000479) oc_vcan_011 188#0000000000000083
(11.000542) oc_vcan_011 300#EA5E5F69FDFE933B
(11.050312) oc_vcan_011 100#4B00000000000085
(11.050405) oc_vcan_011 188#0000000000000086
(11.060180) oc_vcan_011 120#06C1000000000087
(11.100319) oc_vcan_011 100#4000000000000088
(11.100405) oc_vcan_011 188#0000000000000089
(11.130323) oc_vcan_011 120#065D00000000008A
(11.150476) oc_vcan_011 100#3F0000000000008B
(11.150582) oc_vcan_011 188#000000000000008C
(11.200276) oc_vcan_011 100#460000000000008D
(11.200364) oc_vcan_011 188#000000000000008E
(11.200399) oc_vcan_011 120#058200000000008F
(11.250347) oc_vcan_011 100#3D00000000000090
(11.250456) oc_vcan_011 188#0000000000000091
(11.250513) oc_vcan_011 300#EC7241A1A14F6E9C
(11.270263) oc_vcan_011 120#0589000000000093
(11.300361) oc_vcan_011 100#4500000000000094
(11.300492) oc_vcan_011 188#0000000000000095
(11.340324) oc_vcan_011 120#06FB000000000096
(11.350348) oc_vcan_011 100#3A00000000000097
(11.350463) oc_vcan_011 188#0000000000000098
(11.400376) oc_vcan_011 100#4200000000000099
(11.400461) oc_vcan_011 188#000000000000009A
(11.410350) oc_vcan_011 120#070300000000009B
(11.450263) oc_vcan_011 100#480000000000009C
(11.450336) oc_vcan_011 188#000000000000009D
(11.480407) oc_vcan_011 120#05E800000000009E
(11.500256) oc_vcan_011 100#480000000000009F
(11.500332) oc_vcan_011 188#00000000000000A0
(11.500372) oc_vcan_011 300#F48591AFFB771BB7
(11.550289) oc_vcan_011 100#41000000000000A2
(11.550417) oc_vcan_011 188#00000000000000A3
(11.550455) oc_vcan_011 120#06F40000000000A4
(11.600281) oc_vcan_011 100#48000000000000A5
(11.600390) oc_vcan_011 188#00000000000000A6
(11.620270) oc_vcan_011 120#067D0000000000A7
(11.650266) oc_vcan_011 100#40000000000000A8
(11.650344) oc_vcan_011 188#00000000000000A9
(11.690251) oc_vcan_011 120#06F90000000000AA
(11.700223) oc_vcan_011 100#44000000000000AB
(11.700296) oc_vcan_011 188#00000000000000AC
(11.750389) oc_vcan_011 100#48000000000000AD
(11.750496) oc_vcan_011 188#00000000000000AE
(11.750601) oc_vcan_011 300#76E84446109872D3
(11.760247) oc_vcan_011 120#07370000000000B0
(11.800333) oc_vcan_011 100#4A000000000000B1
(11.800448) oc_vcan_011 188#00000000000000B2
(11.830989) oc_vcan_011 120#068E0000000000B3
(11.850374) oc_vcan_011 100#3B000000000000B4
(11.850512) oc_vcan_011 188#00000000000000B5
(11.900302) oc_vcan_011 100#46000000000000B6
(11.900379) oc_vcan_011 188#00000000000000B7
(11.900410) oc_vcan_011 120#069D0000000000B8
(11.950285) oc_vcan_011 100#42000000000000B9
(11.950410) oc_vcan_011 188#00000000000000BA
(11.970325) oc_vcan_011 120#06EA0000000000BB
(12.000409) oc_vcan_011 100#47000000000000BC
(12.000521) oc_vcan_011 188#00000000000000BD
(12.000563) oc_vcan_011 300#E50EE2F74B46EAC3
(12.040364) oc_vcan_011 120#05D50000000000BF
(12.050281) oc_vcan_011 100#41000000000000C0
(12.050366) oc_vcan_011 188#00000000000000C1
(12.100342) oc_vcan_011 100#49000000000000C2
(12.100483) oc_vcan_011 188#00000000000000C3
(12.110272) oc_vcan_011 120#072B0000000000C4
(12.150354) oc_vcan_011 100#42000000000000C5
(12.150463) oc_vcan_011 188#00000000000000C6
(12.180267) oc_vcan_011 120#06290000000000C7
(12.200321) oc_vcan_011 100#42000000000000C8
(12.200482) oc_vcan_011 188#00000000000000C9
(12.250356) oc_vcan_011 100#40000000000000CA
(12.250457) oc_vcan_011 188#00000000000000CB
(12.250501) oc_vcan_011 120#06DD0000000000CC
(12.250549) oc_vcan_011 300#F1E8EE9CE75E91C3
(12.300284) oc_vcan_011 100#4A000000000000CE
(12.300377) oc_vcan_011 188#00000000000000CF
(12.320297) oc_vcan_011 120#06FB0000000000D0
(12.350263) oc_vcan_011 100#45000000000000D1
(12.350346) oc_vcan_011 188#00000000000000D2
(12.390292) oc_vcan_011 120#07550000000000D3
(12.400235) oc_vcan_011 100#49000000000000D4
(12.400331) oc_vcan_011 188#00000000000000D5
(12.450238) oc_vcan_011 100#44000000000000D6
(12.450316) oc_vcan_011 188#00000000000000D7
(12.460300) oc_vcan_011 120#06130000000000D8
(12.500269) oc_vcan_011 100#48000000000000D9
(12.500344) oc_vcan_011 188#00000000000000DA
(12.500392) oc_vcan_011 300#945D3F1F485DA6A5
(12.530298) oc_vcan_011 120#06B80000000000DC
(12.550290) oc_vcan_011 100#48000000000000DD
(12.550369) oc_vcan_011 188#00000000000000DE
(12.600393) oc_vcan_011 100#3C000000000000DF
(12.600499) oc_vcan_011 188#00000000000000E0
(12.600587) oc_vcan_011 120#06B30000000000E1
(12.650296) oc_vcan_011 100#3F000000000000E2
(12.650389) oc_vcan_011 188#00000000000000E3
(12.670399) oc_vcan_011 120#05AB0000000000E4
(12.700290) oc_vcan_011 100#4A000000000000E5
(12.700364) oc_vcan_011 188#00000000000000E6
(12.740357) oc_vcan_011 120#06DA0000000000E7
(12.750254) oc_vcan_011 100#3F000000000000E8
(12.750326) oc_vcan_011 188#00000000000000E9
(12.750388) oc_vcan_011 300#EAC683CB69541371
(12.800256) oc_vcan_011 100#3B000000000000EB
(12.800357) oc_vcan_011 188#00000000000000EC
(12.810179) oc_vcan_011 120#057F0000000000ED
(12.850353) oc_vcan_011 100#3C000000000000EE
(12.850459) oc_vcan_011 188#00000000000000EF
(12.880296) oc_vcan_011 120#05940000000000F0
(12.900350) oc_vcan_011 100#44000000000000F1
(12.900450) oc_vcan_011 188#00000000000000F2
(12.950666) oc_vcan_011 100#49000000000000F3
(12.950749) oc_vcan_011 188#00000000000000F4
(12.950784) oc_vcan_011 120#05DE0000000000F5
(13.000343) oc_vcan_011 100#48000000000000F6
(13.000461) oc_vcan_011 188#00000000000000F7
(13.000503) oc_vcan_011 300#A794749D000FA0A1
(13.020303) oc_vcan_011 120#061D0000000000F9
(13.051315) oc_vcan_011 100#48000000000000FA
(13.051396) oc_vcan_011 188#00000000000000FB
(13.090274) oc_vcan_011 120#05880000000000FC
(13.100215) oc_vcan_011 100#3E000000000000FD
(13.100289) oc_vcan_011 188#00000000000000FE
(13.150362) oc_vcan_011 100#3A000000000000FF
(13.150478) oc_vcan_011 188#0000000000000000
(13.160244) oc_vcan_011 120#0677000000000001
(13.200264) oc_vcan_011 100#4A00000000000002
(13.200372) oc_vcan_011 188#0000000000000003
(13.230290) oc_vcan_011 120#070F000000000004
(13.250265) oc_vcan_011 100#3E00000000000005
(13.250359) oc_vcan_011 188#0000000000000006
(13.250432) oc_vcan_011 300#17E764A2A3764BE4
(13.300316) oc_vcan_011 100#4A00000000000008
(13.300404) oc_vcan_011 188#0000000000000009
(13.300509) oc_vcan_011 120#05EC00000000000A
(13.350303) oc_vcan_011 100#3D0000000000000B
(13.350403) oc_vcan_011 188#000000000000000C
(13.370351) oc_vcan_011 120#070400000000000D
(13.400296) oc_vcan_011 100#430000000000000E
(13.400401) oc_vcan_011 188#000000000000000F
(13.440282) oc_vcan_011 120#0685000000000010
(13.450239) oc_vcan_011 100#3B00000000000011
(13.450311) oc_vcan_011 188#0000000000000012
(13.500290) oc_vcan_011 100#3E00000000000013
(13.500371) oc_vcan_011 188#0000000000000014
(13.500408) oc_vcan_011 300#06338158A42977C7
(13.510214) oc_vcan_011 120#057B000000000016
(13.550399) oc_vcan_011 100#3C00000000000017
(13.550490) oc_vcan_011 188#0000000000000018
(13.580283) oc_vcan_011 120#0733000000000019
(13.600261) oc_vcan_011 100#3A0000000000001A
(13.600390) oc_vcan_011 188#000000000000001B
(13.650350) oc_vcan_011 100#400000000000001C
(13.650487) oc_vcan_011 188#000000000000001D
(13.650552) oc_vcan_011 120#061200000000001E
(13.700327) oc_vcan_011 100#430000000000001F
(13.700438) oc_vcan_011 188#0000000000000020
(13.720275) oc_vcan_011 120#06E0000000000021
(13.750284) oc_vcan_011 100#3D00000000000022
(13.750430) oc_vcan_011 188#0000000000000023
(13.750498) oc_vcan_011 300#645AD70898BC5B2B
(13.790294) oc_vcan_011 120#05C4000000000025
(13.800253) oc_vcan_011 100#3E00000000000026
(13.800354) oc_vcan_011 188#0000000000000027
(13.850342) oc_vcan_011 100#3F00000000000028
(13.850471) oc_vcan_011 188#0000000000000029
(13.860369) oc_vcan_011 120#062900000000002A
(13.900334) oc_vcan_011 100#470000000000002B
(13.900423) oc_vcan_011 188#000000000000002C
(13.930383) oc_vcan_011 120#06A600000000002D
(13.950406) oc_vcan_011 100#410000000000002E
(13.950536) oc_vcan_011 188#000000000000002F
(14.000460) oc_vcan_011 100#4500000000000030
(14.000610) oc_vcan_011 188#0000000000000031
(14.000685) oc_vcan_011 120#068B000000000032
(14.000770) oc_vcan_011 300#0B6F96A5C4B8C2E4
(14.050339) oc_vcan_011 100#3B00000000000034
(14.050464) oc_vcan_011 188#0000000000000035
(14.070305) oc_vcan_011 120#0694000000000036
(14.100334) oc_vcan_011 100#3F00000000000037
(14.100498) oc_vcan_011 188#0000000000000038
(14.140353) oc_vcan_011 120#06FD000000000039
(14.150350) oc_vcan_011 100#3A0000000000003A
(14.150477) oc_vcan_011 188#000000000000003B
(14.200377) oc_vcan_011 100#480000000000003C
(14.200489) oc_vcan_011 188#000000000000003D
(14.210344) oc_vcan_011 120#05C600000000003E
(14.250394) oc_vcan_011 100#3E0000000000003F
(14.250508) oc_vcan_011 188#0000000000000040
(14.250588) oc_vcan_011 300#4A8308709BEC9016
(14.280357) oc_vcan_011 120#06F7000000000042
(14.300333) oc_vcan_011 100#4400000000000043
(14.300447) oc_vcan_011 188#0000000000000044
(14.350323) oc_vcan_011 100#3C00000000000045
(14.350488) oc_vcan_011 188#0000000000000046
(14.350549) oc_vcan_011 120#0679000000000047
(14.400306) oc_vcan_011 100#3F00000000000048
(14.400431) oc_vcan_011 188#0000000000000049
(14.420317) oc_vcan_011 120#06CC00000000004A
(14.450390) oc_vcan_011 100#400000000000004B
(14.450500) oc_vcan_011 188#000000000000004C
(14.490339) oc_vcan_011 120#057D00000000004D
(14.500330) oc_vcan_011 100#3C0000000000004E
(14.500438) oc_vcan_011 188#000000000000004F
(14.500490) oc_vcan_011 300#0EFEDEFDF7FEDA55
(14.550322) oc_vcan_011 100#4A00000000000051
(14.550410) oc_vcan_011 188#0000000000000052
(14.560246) oc_vcan_011 120#0734000000000053
(14.600285) oc_vcan_011 100#4600000000000054
(14.600365) oc_vcan_011 188#0000000000000055
(14.630217) oc_vcan_011 120#06EF000000000056
(14.650228) oc_vcan_011 100#4B00000000000057
(14.650304) oc_vcan_011 188#0000000000000058
(14.700331) oc_vcan_011 100#4300000000000059
(14.700519) oc_vcan_011 188#000000000000005A
(14.700623) oc_vcan_011 120#05C500000000005B
(14.750350) oc_vcan_011 100#4A0000000000005C
(14.750454) oc_vcan_011 188#000000000000005D
(14.750516) oc_vcan_011 300#7FA4AB7A6F562271
(14.770306) oc_vcan_011 120#057800000000005F
(14.800283) oc_vcan_011 100#3B00000000000060
(14.800368) oc_vcan_011 188#0000000000000061
(14.840232) oc_vcan_011 120#0689000000000062
(14.850299) oc_vcan_011 100#4900000000000063
(14.850390) oc_vcan_011 188#0000000000000064
(14.900261) oc_vcan_011 100#4000000000000065
(14.900342) oc_vcan_011 188#0000000000000066
(14.910250) oc_vcan_011 120#066A000000000067
(14.950321) oc_vcan_011 100#4B00000000000068
(14.950402) oc_vcan_011 188#0000000000000069
(14.980309) oc_vcan_011 120#05C100000000006A
(15.000333) oc_vcan_011 100#4B0000000000006B
(15.000417) oc_vcan_011 188#000000000000006C
(15.000453) oc_vcan_011 300#7E2919127A0D81A1
(15.050350) oc_vcan_011 100#3C0000000000006E
(15.050458) oc_vcan_011 188#000000000000006F
(15.050500) oc_vcan_011 120#067D000000000070
(15.100307) oc_vcan_011 100#4600000000000071
(15.100410) oc_vcan_011 188#0000000000000072
(15.120381) oc_vcan_011 120#0600000000000073
(15.150337) oc_vcan_011 100#3E00000000000074
(15.150416) oc_vcan_011 188#0000000000000075
(15.190303) oc_vcan_011 120#0669000000000076
(15.200280) oc_vcan_011 100#4000000000000077
(15.200400) oc_vcan_011 188#0000000000000078
(15.250288) oc_vcan_011 100#4400000000000079
(15.250388) oc_vcan_011 188#000000000000007A
(15.250474) oc_vcan_011 300#2891C73987738B6A
(15.260309) oc_vcan_011 120#06CE00000000007C
(15.300328) oc_vcan_011 100#460000000000007D
(15.300428) oc_vcan_011 188#000000000000007E
(15.330359) oc_vcan_011 120#076400000000007F
(15.350212) oc_vcan_011 100#4700000000000080
(15.350303) oc_vcan_011 188#0000000000000081
(15.400238) oc_vcan_011 100#3D00000000000082
(15.400310) oc_vcan_011 188#0000000000000083
(15.400343) oc_vcan_011 120#062A000000000084
(15.450373) oc_vcan_011 100#4A00000000000085
(15.450502) oc_vcan_011 188#0000000000000086
(15.470350) oc_vcan_011 120#0650000000000087
(15.500435) oc_vcan_011 100#4400000000000088
(15.500531) oc_vcan_011 188#0000000000000089
(15.500580) oc_vcan_011 300#CB6F8B62E2CE3315
(15.540370) oc_vcan_011 120#05D300000000008B
(15.550466) oc_vcan_011 100#3D0000000000008C
(15.550632) oc_vcan_011 188#000000000000008D
(15.600233) oc_vcan_011 100#3B0000000000008E
(15.600312) oc_vcan_011 188#000000000000008F
(15.610209) oc_vcan_011 120#0724000000000090
(15.650252) oc_vcan_011 100#3E00000000000091
(15.650355) oc_vcan_011 188#0000000000000092
(15.680277) oc_vcan_011 120#057D000000000093
(15.700252) oc_vcan_011 100#3E00000000000094
(15.700330) oc_vcan_011 188#0000000000000095
(15.750306) oc_vcan_011 100#3A00000000000096
(15.750468) oc_vcan_011 188#0000000000000097
(15.750527) oc_vcan_011 120#0586000000000098
(15.750576) oc_vcan_011 300#03A02A58A9305683
(15.800427) oc_vcan_011 100#3D0000000000009A
(15.800648) oc_vcan_011 188#000000000000009B
(15.820309) oc_vcan_011 120#070700000000009C
(15.850301) oc_vcan_011 100#4A0000000000009D
(15.850442) oc_vcan_011 188#000000000000009E
(15.890264) oc_vcan_011 120#05EB00000000009F
(15.900259) oc_vcan_011 100#44000000000000A0
(15.900336) oc_vcan_011 188#00000000000000A1
(15.950289) oc_vcan_011 100#4B000000000000A2
(15.950376) oc_vcan_011 188#00000000000000A3
(15.960244) oc_vcan_011 120#067F0000000000A4
(16.000352) oc_vcan_011 100#4A000000000000A5
(16.000474) oc_vcan_011 188#00000000000000A6
(16.000561) oc_vcan_011 300#303784222301F6F0
(16.030362) oc_vcan_011 120#06740000000000A8
(16.050347) oc_vcan_011 100#48000000000000A9
(16.050429) oc_vcan_011 188#00000000000000AA
(16.100328) oc_vcan_011 100#3D000000000000AB
(16.100406) oc_vcan_011 188#00000000000000AC
(16.100479) oc_vcan_011 120#074C0000000000AD
(16.150389) oc_vcan_011 100#40000000000000AE
(16.150495) oc_vcan_011 188#00000000000000AF
(16.170390) oc_vcan_011 120#05FD0000000000B0
(16.200414) oc_vcan_011 100#42000000000000B1
(16.200620) oc_vcan_011 188#00000000000000B2
(16.240421) oc_vcan_011 120#073A0000000000B3
(16.250413) oc_vcan_011 100#47000000000000B4
(16.250527) oc_vcan_011 188#00000000000000B5
(16.250589) oc_vcan_011 300#3330C3EF8DDA488C
(16.300306) oc_vcan_011 100#3B000000000000B7
(16.300402) oc_vcan_011 188#00000000000000B8
(16.310294) oc_vcan_011 120#06990000000000B9
(16.350306) oc_vcan_011 100#3A000000000000BA
(16.350399) oc_vcan_011 188#00000000000000BB
(16.380236) oc_vcan_011 120#05DF0000000000BC
(16.400332) oc_vcan_011 100#42000000000000BD
(16.400435) oc_vcan_011 188#00000000000000BE
(16.450342) oc_vcan_011 100#49000000000000BF
(16.450484) oc_vcan_011 188#00000000000000C0
(16.450540) oc_vcan_011 120#05880000000000C1
(16.500289) oc_vcan_011 100#48000000000000C2
(16.500371) oc_vcan_011 188#00000000000000C3
(16.500407) oc_vcan_011 300#A35511B0FD734A9F
(16.520332) oc_vcan_011 120#05A80000000000C5
(16.550259) oc_vcan_011 100#3A000000000000C6
(16.550357) oc_vcan_011 188#00000000000000C7
(16.590256) oc_vcan_011 120#070F0000000000C8
(16.600322) oc_vcan_011 100#3A000000000000C9
(16.600396) oc_vcan_011 188#00000000000000CA
(16.650307) oc_vcan_011 100#4B000000000000CB
(16.650413) oc_vcan_011 188#00000000000000CC
(16.660276) oc_vcan_011 120#06C60000000000CD
(16.700381) oc_vcan_011 100#40000000000000CE
(16.700478) oc_vcan_011 188#00000000000000CF
(16.730408) oc_vcan_011 120#05C20000000000D0
(16.750359) oc_vcan_011 100#3D000000000000D1
(16.750458) oc_vcan_011 188#00000000000000D2
(16.750506) oc_vcan_011 300#81A6291D9F3FD3DA
(16.800377) oc_vcan_011 100#46000000000000D4
(16.800476) oc_vcan_011 188#00000000000000D5
(16.800525) oc_vcan_011 120#074C0000000000D6
(16.850327) oc_vcan_011 100#3E000000000000D7
(16.850407) oc_vcan_011 188#00000000000000D8
(16.870362) oc_vcan_011 120#05B90000000000D9
(16.900367) oc_vcan_011 100#3F000000000000DA
(16.900452) oc_vcan_011 188#00000000000000DB
(16.940361) oc_vcan_011 120#06730000000000DC
(16.950300) oc_vcan_011 100#41000000000000DD
(16.950398) oc_vcan_011 188#00000000000000DE
(17.000316) oc_vcan_011 100#4A000000000000DF
(17.000403) oc_vcan_011 188#00000000000000E0
(17.000439) oc_vcan_011 300#EFB80219B4496C45
(17.010208) oc_vcan_011 120#063F0000000000E2
(17.050450) oc_vcan_011 100#3F000000000000E3
(17.050554) oc_vcan_011 188#00000000000000E4
(17.080314) oc_vcan_011 120#06C10000000000E5
(17.100337) oc_vcan_011 100#3C000000000000E6
(17.100448) oc_vcan_011 188#00000000000000E7
(17.150342) oc_vcan_011 100#3A000000000000E8
(17.150466) oc_vcan_011 188#00000000000000E9
(17.150512) oc_vcan_011 120#05A20000000000EA
(17.200311) oc_vcan_011 100#44000000000000EB
(17.200396) oc_vcan_011 188#00000000000000EC
(17.220378) oc_vcan_011 120#06AE0000000000ED
(17.250233) oc_vcan_011 100#40000000000000EE
(17.250324) oc_vcan_011 188#00000000000000EF
(17.250388) oc_vcan_011 300#C1B426E660034B84
(17.290286) oc_vcan_011 120#06630000000000F1
(17.300245) oc_vcan_011 100#47000000000000F2
(17.300359) oc_vcan_011 188#00000000000000F3
(17.350293) oc_vcan_011 100#3C000000000000F4
(17.350374) oc_vcan_011 188#00000000000000F5
(17.360296) oc_vcan_011 120#05EE0000000000F6
(17.400319) oc_vcan_011 100#45000000000000F7
(17.400396) oc_vcan_011 188#00000000000000F8
(17.433338) oc_vcan_011 120#059C0000000000F9
(17.450244) oc_vcan_011 100#3A000000000000FA
(17.450367) oc_vcan_011 188#00000000000000FB
(17.500270) oc_vcan_011 100#45000000000000FC
(17.500360) oc_vcan_011 188#00000000000000FD
(17.500399) oc_vcan_011 120#063B0000000000FE
(17.500461) oc_vcan_011 300#B7B7BDBA25B1CB59
(17.550268) oc_vcan_011 100#3A00000000000000
(17.550372) oc_vcan_011 188#0000000000000001
(17.570246) oc_vcan_011 120#059A000000000002
(17.600252) oc_vcan_011 100#4600000000000003
(17.600338) oc_vcan_011 188#0000000000000004
(17.640361) oc_vcan_011 120#0657000000000005
(17.650318) oc_vcan_011 100#3F00000000000006
(17.650427) oc_vcan_011 188#0000000000000007
(17.700307) oc_vcan_011 100#3D00000000000008
(17.700424) oc_vcan_011 188#0000000000000009
(17.710316) oc_vcan_011 120#076800000000000A
(17.750302) oc_vcan_011 100#410000000000000B
(17.750382) oc_vcan_011 188#000000000000000C
(17.750442) oc_vcan_011 300#270DE08DE6A99A50
(17.780276) oc_vcan_011 120#064300000000000E
(17.800280) oc_vcan_011 100#3B0000000000000F
(17.800361) oc_vcan_011 188#0000000000000010
(17.850298) oc_vcan_011 100#3E00000000000011
(17.850376) oc_vcan_011 188#0000000000000012
(17.850410) oc_vcan_011 120#0701000000000013
(17.900302) oc_vcan_011 100#3D00000000000014
(17.900397) oc_vcan_011 188#0000000000000015
(17.920297) oc_vcan_011 120#05DB000000000016
(17.950401) oc_vcan_011 100#4100000000000017
(17.950497) oc_vcan_011 188#0000000000000018
(17.990297) oc_vcan_011 120#06F6000000000019
(18.000295) oc_vcan_011 100#4B0000000000001A
(18.000398) oc_vcan_011 188#000000000000001B
(18.000448) oc_vcan_011 300#5E9EEEF12AB4D59A
(18.050295) oc_vcan_011 100#4A0000000000001D
(18.050392) oc_vcan_011 188#000000000000001E
(18.060299) oc_vcan_011 120#059B00000000001F
(18.100311) oc_vcan_011 100#3D00000000000020
(18.100434) oc_vcan_011 188#0000000000000021
(18.130347) oc_vcan_011 120#067F000000000022
(18.150275) oc_vcan_011 100#4700000000000023
(18.150362) oc_vcan_011 188#0000000000000024
(18.200269) oc_vcan_011 100#4600000000000025
(18.200357) oc_vcan_011 188#0000000000000026
(18.200415) oc_vcan_011 120#0627000000000027
(18.250319) oc_vcan_011 100#4B00000000000028
(18.250407) oc_vcan_011 188#0000000000000029
(18.250447) oc_vcan_011 300#5DDFB98704311EA0
(18.270352) oc_vcan_011 120#076700000000002B
(18.300376) oc_vcan_011 100#3A0000000000002C
(18.300449) oc_vcan_011 188#000000000000002D
(18.340288) oc_vcan_011 120#073000000000002E
(18.350264) oc_vcan_011 100#3B0000000000002F
(18.350339) oc_vcan_011 188#0000000000000030
(18.400333) oc_vcan_011 100#4800000000000031
(18.400448) oc_vcan_011 188#0000000000000032
(18.410226) oc_vcan_011 120#05B4000000000033
(18.450397) oc_vcan_011 100#4100000000000034
(18.450525) oc_vcan_011 188#0000000000000035
(18.480345) oc_vcan_011 120#05EA000000000036
(18.500301) oc_vcan_011 100#3C00000000000037
(18.500383) oc_vcan_011 188#0000000000000038
(18.500420) oc_vcan_011 300#10B7AD89A204F209
(18.550347) oc_vcan_011 100#440000000000003A
(18.550455) oc_vcan_011 188#000000000000003B
(18.550505) oc_vcan_011 120#076000000000003C
(18.600318) oc_vcan_011 100#3D0000000000003D
(18.600423) oc_vcan_011 188#000000000000003E
(18.620229) oc_vcan_011 120#06F500000000003F
(18.650303) oc_vcan_011 100#4800000000000040
(18.650407) oc_vcan_011 188#0000000000000041
(18.690308) oc_vcan_011 120#0594000000000042
(18.700231) oc_vcan_011 100#4000000000000043
(18.700351) oc_vcan_011 188#0000000000000044
(18.750324) oc_vcan_011 100#3B00000000000045
(18.750428) oc_vcan_011 188#0000000000000046
(18.750487) oc_vcan_011 300#1541D2B2EEFFC3FF
(18.760284) oc_vcan_011 120#0715000000000048
(18.800246) oc_vcan_011 100#3A00000000000049
(18.800336) oc_vcan_011 188#000000000000004A
(18.830332) oc_vcan_011 120#065A00000000004B
(18.850283) oc_vcan_011 100#3C0000000000004C
(18.850392) oc_vcan_011 188#000000000000004D
(18.900522) oc_vcan_011 100#460000000000004E
(18.900668) oc_vcan_011 188#000000000000004F
(18.900731) oc_vcan_011 120#06BD000000000050
(18.950420) oc_vcan_011 100#4900000000000051
(18.950529) oc_vcan_011 188#0000000000000052
(18.970383) oc_vcan_011 120#071B000000000053
(19.000298) oc_vcan_011 100#4400000000000054
(19.000378) oc_vcan_011 188#0000000000000055
(19.000418) oc_vcan_011 300#E7FBBE5C25E765A9
(19.040294) oc_vcan_011 120#06E1000000000057
(19.050239) oc_vcan_011 100#4700000000000058
(19.050319) oc_vcan_011 188#0000000000000059
(19.100267) oc_vcan_011 100#420000000000005A
(19.100347) oc_vcan_011 188#000000000000005B
(19.110238) oc_vcan_011 120#075A00000000005C
(19.150281) oc_vcan_011 100#480000000000005D
(19.150374) oc_vcan_011 188#000000000000005E
(19.180332) oc_vcan_011 120#070400000000005F
(19.200342) oc_vcan_011 100#3E00000000000060
(19.200455) oc_vcan_011 188#0000000000000061
(19.250333) oc_vcan_011 100#4400000000000062
(19.250420) oc_vcan_011 188#0000000000000063
(19.250454) oc_vcan_011 120#06BA000000000064
(19.250536) oc_vcan_011 300#370D44682C8E1683
(19.300365) oc_vcan_011 100#4700000000000066
(19.300474) oc_vcan_011 188#0000000000000067
(19.320264) oc_vcan_011 120#06C8000000000068
(19.350326) oc_vcan_011 100#3D00000000000069
(19.350409) oc_vcan_011 188#000000000000006A
(19.390286) oc_vcan_011 120#05F600000000006B
(19.400267) oc_vcan_011 100#430000000000006C
(19.400346) oc_vcan_011 188#000000000000006D
(19.450290) oc_vcan_011 100#3C0000000000006E
(19.450373) oc_vcan_011 188#000000000000006F
(19.460264) oc_vcan_011 120#059C000000000070
(19.500372) oc_vcan_011 100#4900000000000071
(19.500470) oc_vcan_011 188#0000000000000072
(19.500515) oc_vcan_011 300#BDF680DCE6E62E30
(19.530281) oc_vcan_011 120#0639000000000074
(19.550412) oc_vcan_011 100#4200000000000075
(19.550546) oc_vcan_011 188#0000000000000076
(19.600319) oc_vcan_011 100#3A00000000000077
(19.600427) oc_vcan_011 188#0000000000000078
(19.600478) oc_vcan_011 120#05B4000000000079
(19.650398) oc_vcan_011 100#3E0000000000007A
(19.650541) oc_vcan_011 188#000000000000007B
(19.670364) oc_vcan_011 120#057C00000000007C
(19.700295) oc_vcan_011 100#440000000000007D
(19.700467) oc_vcan_011 188#000000000000007E
(19.740347) oc_vcan_011 120#069100000000007F
(19.750268) oc_vcan_011 100#4700000000000080
(19.750351) oc_vcan_011 188#0000000000000081
(19.750389) oc_vcan_011 300#BFC786F2582B4853
(19.800331) oc_vcan_011 100#3E00000000000083
(19.800433) oc_vcan_011 188#0000000000000084
(19.810365) oc_vcan_011 120#06E9000000000085
(19.850400) oc_vcan_011 100#4900000000000086
(19.850500) oc_vcan_011 188#0000000000000087
(19.880366) oc_vcan_011 120#059F000000000088
(19.900319) oc_vcan_011 100#3A00000000000089
(19.900443) oc_vcan_011 188#000000000000008A
(19.950351) oc_vcan_011 100#410000000000008B
(19.950453) oc_vcan_011 188#000000000000008C
(19.950500) oc_vcan_011 120#058700000000008D
(20.000289) oc_vcan_011 100#3B0000000000008E
(20.000374) oc_vcan_011 188#000000000000008F
(20.000421) oc_vcan_011 300#DC6F514E243B5CB7
(20.020382) oc_vcan_011 120#0579000000000091
(20.050322) oc_vcan_011 100#4000000000000092
(20.050406) oc_vcan_011 188#0000000000000093
(20.090417) oc_vcan_011 120#0623000000000094
(20.100295) oc_vcan_011 100#4600000000000095
(20.100379) oc_vcan_011 188#0000000000000096
(20.150371) oc_vcan_011 100#3D00000000000097
(20.150503) oc_vcan_011 188#0000000000000098
(20.160503) oc_vcan_011 120#0708000000000099
(20.200419) oc_vcan_011 100#4A0000000000009A
(20.200527) oc_vcan_011 188#000000000000009B
(20.230400) oc_vcan_011 120#069200000000009C
(20.250365) oc_vcan_011 100#410000000000009D
(20.250473) oc_vcan_011 188#000000000000009E
(20.250525) oc_vcan_011 300#D89B343B42A1166B
(20.300380) oc_vcan_011 100#3A000000000000A0
(20.300519) oc_vcan_011 188#00000000000000A1
(20.300585) oc_vcan_011 120#07130000000000A2
(20.350269) oc_vcan_011 100#46000000000000A3
(20.350371) oc_vcan_011 188#00000000000000A4
(20.370298) oc_vcan_011 120#05880000000000A5
(20.400327) oc_vcan_011 100#44000000000000A6
(20.400410) oc_vcan_011 188#00000000000000A7
(20.440405) oc_vcan_011 120#06160000000000A8
(20.450345) oc_vcan_011 100#45000000000000A9
(20.450492) oc_vcan_011 188#00000000000000AA
(20.500265) oc_vcan_011 100#47000000000000AB
(20.500386) oc_vcan_011 188#00000000000000AC
(20.500429) oc_vcan_011 300#3984B016D5355AA6
(20.510250) oc_vcan_011 120#06710000000000AE
(20.550439) oc_vcan_011 100#3C000000000000AF
(20.550544) oc_vcan_011 188#00000000000000B0
(20.580339) oc_vcan_011 120#070D0000000000B1
(20.600330) oc_vcan_011 100#47000000000000B2
(20.600455) oc_vcan_011 188#00000000000000B3
(20.650277) oc_vcan_011 100#46000000000000B4
(20.650355) oc_vcan_011 188#00000000000000B5
(20.650386) oc_vcan_011 120#06FE0000000000B6
(20.700271) oc_vcan_011 100#40000000000000B7
(20.700349) oc_vcan_011 188#00000000000000B8
(20.720483) oc_vcan_011 120#05DD0000000000B9
(20.750397) oc_vcan_011 100#46000000000000BA
(20.750486) oc_vcan_011 188#00000000000000BB
(20.750525) oc_vcan_011 300#1E5A2CE1891BC310
(20.790345) oc_vcan_011 120#06700000000000BD
(20.800299) oc_vcan_011 100#3A000000000000BE
(20.800417) oc_vcan_011 188#00000000000000BF
(20.850381) oc_vcan_011 100#3C000000000000C0
(20.850505) oc_vcan_011 188#00000000000000C1
(20.860373) oc_vcan_011 120#065A0000000000C2
(20.900303) oc_vcan_011 100#3B000000000000C3
(20.900383) oc_vcan_011 188#00000000000000C4
(20.930352) oc_vcan_011 120#06BC0000000000C5
(20.950338) oc_vcan_011 100#3E000000000000C6
(20.950448) oc_vcan_011 188#00000000000000C7
(21.000263) oc_vcan_011 100#40000000000000C8
(21.000361) oc_vcan_011 188#00000000000000C9
(21.000400) oc_vcan_011 120#06A00000000000CA
(21.000461) oc_vcan_011 300#ACA37CC095C32255
(21.050352) oc_vcan_011 100#4A000000000000CC
(21.050457) oc_vcan_011 188#00000000000000CD
(21.070255) oc_vcan_011 120#07170000000000CE
(21.100320) oc_vcan_011 100#3E000000000000CF
(21.100441) oc_vcan_011 188#00000000000000D0
(21.140334) oc_vcan_011 120#07320000000000D1
(21.150350) oc_vcan_011 100#3E000000000000D2
(21.150448) oc_vcan_011 188#00000000000000D3
(21.200320) oc_vcan_011 100#46000000000000D4
(21.200421) oc_vcan_011 188#00000000000000D5
(21.210299) oc_vcan_011 120#06EC0000000000D6
(21.250357) oc_vcan_011 100#46000000000000D7
(21.250436) oc_vcan_011 188#00000000000000D8
(21.250473) oc_vcan_011 300#8ECA387D8109CE78
(21.280286) oc_vcan_011 120#062D0000000000DA
(21.300250) oc_vcan_011 100#47000000000000DB
(21.300391) oc_vcan_011 188#00000000000000DC
(21.350305) oc_vcan_011 100#40000000000000DD
(21.350401) oc_vcan_011 188#00000000000000DE
(21.350436) oc_vcan_011 120#06610000000000DF
(21.400288) oc_vcan_011 100#46000000000000E0
(21.400368) oc_vcan_011 188#00000000000000E1
(21.420323) oc_vcan_011 120#06B70000000000E2
(21.450370) oc_vcan_011 100#45000000000000E3
(21.450512) oc_vcan_011 188#00000000000000E4
(21.490353) oc_vcan_011 120#06B60000000000E5
(21.500188) oc_vcan_011 100#4B000000000000E6
(21.500272) oc_vcan_011 188#00000000000000E7
(21.500320) oc_vcan_011 300#FD9C8187266E33F3
(21.550309) oc_vcan_011 100#3A000000000000E9
(21.550410) oc_vcan_011 188#00000000000000EA
(21.560277) oc_vcan_011 120#06E80000000000EB
(21.600250) oc_vcan_011 100#4A000000000000EC
(21.600347) oc_vcan_011 188#00000000000000ED
(21.630382) oc_vcan_011 120#07210000000000EE
(21.650338) oc_vcan_011 100#3E000000000000EF
(21.650440) oc_vcan_011 188#00000000000000F0
(21.700310) oc_vcan_011 100#49000000000000F1
(21.700408) oc_vcan_011 188#00000000000000F2
(21.700456) oc_vcan_011 120#06710000000000F3
(21.750257) oc_vcan_011 100#3F000000000000F4
(21.750342) oc_vcan_011 188#00000000000000F5
(21.750386) oc_vcan_011 300#9C3DAE715B09C7A6
(21.770336) oc_vcan_011 120#06250000000000F7
(21.800234) oc_vcan_011 100#44000000000000F8
(21.800310) oc_vcan_011 188#00000000000000F9
(21.840350) oc_vcan_011 120#06930000000000FA
(21.850265) oc_vcan_011 100#46000000000000FB
(21.850345) oc_vcan_011 188#00000000000000FC
(21.900246) oc_vcan_011 100#44000000000000FD
(21.900371) oc_vcan_011 188#00000000000000FE
(21.910176) oc_vcan_011 120#06770000000000FF
(21.951391) oc_vcan_011 100#4800000000000000
(21.951490) oc_vcan_011 188#0000000000000001
(21.980232) oc_vcan_011 120#05A7000000000002
(22.000237) oc_vcan_011 100#4100000000000003
(22.000329) oc_vcan_011 188#0000000000000004
(22.000383) oc_vcan_011 300#8BAB117A489EE9DE
(22.050256) oc_vcan_011 100#4100000000000006
(22.050407) oc_vcan_011 188#0000000000000007
(22.050455) oc_vcan_011 120#0743000000000008
(22.100273) oc_vcan_011 100#4800000000000009
(22.100401) oc_vcan_011 188#000000000000000A
(22.120399) oc_vcan_011 120#06FA00000000000B
(22.150348) oc_vcan_011 100#490000000000000C
(22.150442) oc_vcan_011 188#000000000000000D
(22.190298) oc_vcan_011 120#065800000000000E
(22.200255) oc_vcan_011 100#3F0000000000000F
(22.200324) oc_vcan_011 188#0000000000000010
(22.250296) oc_vcan_011 100#4500000000000011
(22.250377) oc_vcan_011 188#0000000000000012
(22.250415) oc_vcan_011 300#D834ED87C27E574C
(22.260272) oc_vcan_011 120#05E2000000000014
(22.300374) oc_vcan_011 100#4100000000000015
(22.300468) oc_vcan_011 188#0000000000000016
(22.330298) oc_vcan_011 120#0642000000000017
(22.350351) oc_vcan_011 100#4600000000000018
(22.350440) oc_vcan_011 188#0000000000000019
(22.400322) oc_vcan_011 100#4A0000000000001A
(22.400432) oc_vcan_011 188#000000000000001B
(22.400496) oc_vcan_011 120#076200000000001C
(22.450314) oc_vcan_011 100#410000000000001D
(22.450396) oc_vcan_011 188#000000000000001E
(22.470281) oc_vcan_011 120#073D00000000001F
(22.500252) oc_vcan_011 100#3D00000000000020
(22.500328) oc_vcan_011 188#0000000000000021
(22.500365) oc_vcan_011 300#2381D43B64E96BB9
(22.540296) oc_vcan_011 120#075F000000000023
(22.550280) oc_vcan_011 100#4000000000000024
(22.550375) oc_vcan_011 188#0000000000000025
(22.600371) oc_vcan_011 100#3A00000000000026
(22.600487) oc_vcan_011 188#0000000000000027
(22.610216) oc_vcan_011 120#057B000000000028
(22.650407) oc_vcan_011 100#3C00000000000029
(22.650527) oc_vcan_011 188#000000000000002A
(22.680309) oc_vcan_011 120#069500000000002B
(22.700357) oc_vcan_011 100#420000000000002C
(22.700450) oc_vcan_011 188#000000000000002D
(22.750347) oc_vcan_011 100#3D0000000000002E
(22.750463) oc_vcan_011 188#000000000000002F
(22.750518) oc_vcan_011 120#0592000000000030
(22.750609) oc_vcan_011 300#815FC21EBB6E4446
(22.800351) oc_vcan_011 100#4400000000000032
(22.800482) oc_vcan_011 188#0000000000000033
(22.820371) oc_vcan_011 120#06D1000000000034
(22.850330) oc_vcan_011 100#3B00000000000035
(22.850432) oc_vcan_011 188#0000000000000036
(22.890342) oc_vcan_011 120#0595000000000037
(22.900291) oc_vcan_011 100#4000000000000038
(22.900397) oc_vcan_011 188#0000000000000039
(22.950322) oc_vcan_011 100#490000000000003A
(22.950432) oc_vcan_011 188#000000000000003B
(22.960362) oc_vcan_011 120#06EC00000000003C
(23.000330) oc_vcan_011 100#3C0000000000003D
(23.000413) oc_vcan_011 188#000000000000003E
(23.000449) oc_vcan_011 300#682CDF6F92B1BE25
(23.030359) oc_vcan_011 120#05EA000000000040
(23.050381) oc_vcan_011 100#4500000000000041
(23.050476) oc_vcan_011 188#0000000000000042
(23.100301) oc_vcan_011 100#4700000000000043
(23.100407) oc_vcan_011 188#0000000000000044
(23.100448) oc_vcan_011 120#0656000000000045
(23.150327) oc_vcan_011 100#4000000000000046
(23.150423) oc_vcan_011 188#0000000000000047
(23.170280) oc_vcan_011 120#05DB000000000048
(23.200270) oc_vcan_011 100#3A00000000000049
(23.200375) oc_vcan_011 188#000000000000004A
(23.240318) oc_vcan_011 120#059400000000004B
(23.250364) oc_vcan_011 100#3D0000000000004C
(23.250451) oc_vcan_011 188#000000000000004D
(23.250499) oc_vcan_011 300#0C3E8874BB32A5D6
(23.300235) oc_vcan_011 100#450000000000004F
(23.300319) oc_vcan_011 188#0000000000000050
(23.310312) oc_vcan_011 120#067E000000000051
(23.350280) oc_vcan_011 100#3C00000000000052
(23.350406) oc_vcan_011 188#0000000000000053
(23.380330) oc_vcan_011 120#074A000000000054
(23.400362) oc_vcan_011 100#4B00000000000055
(23.400451) oc_vcan_011 188#0000000000000056
(23.450321) oc_vcan_011 100#3D00000000000057
(23.450421) oc_vcan_011 188#0000000000000058
(23.450453) oc_vcan_011 120#0731000000000059
(23.500334) oc_vcan_011 100#3A0000000000005A
(23.500419) oc_vcan_011 188#000000000000005B
(23.500458) oc_vcan_011 300#61414F6E76BE54E8
(23.520335) oc_vcan_011 120#068300000000005D
(23.550310) oc_vcan_011 100#460000000000005E
(23.550395) oc_vcan_011 188#000000000000005F
(23.590355) oc_vcan_011 120#0606000000000060
(23.600267) oc_vcan_011 100#3A00000000000061
(23.600388) oc_vcan_011 188#0000000000000062
(23.650317) oc_vcan_011 100#3E00000000000063
(23.650455) oc_vcan_011 188#0000000000000064
(23.660302) oc_vcan_011 120#069B000000000065
(23.700320) oc_vcan_011 100#3D00000000000066
(23.700425) oc_vcan_011 188#0000000000000067
(23.730282) oc_vcan_011 120#0643000000000068
(23.750330) oc_vcan_011 100#4B00000000000069
(23.750464) oc_vcan_011 188#000000000000006A
(23.750516) oc_vcan_011 300#225A51A5BDD3E345
(23.800339) oc_vcan_011 100#4B0000000000006C
(23.800475) oc_vcan_011 188#000000000000006D
(23.800539) oc_vcan_011 120#076A00000000006E
(23.850281) oc_vcan_011 100#3A0000000000006F
(23.850366) oc_vcan_011 188#0000000000000070
(23.870275) oc_vcan_011 120#074F000000000071
(23.900290) oc_vcan_011 100#3C00000000000072
(23.900376) oc_vcan_011 188#0000000000000073
(23.940358) oc_vcan_011 120#05E1000000000074
(23.950291) oc_vcan_011 100#4900000000000075
(23.950375) oc_vcan_011 188#0000000000000076
(24.000290) oc_vcan_011 100#4300000000000077
(24.000377) oc_vcan_011 188#0000000000000078
(24.000439) oc_vcan_011 300#04B61D897C3AA2FA
(24.010246) oc_vcan_011 120#075000000000007A
(24.050270) oc_vcan_011 100#450000000000007B
(24.050349) oc_vcan_011 188#000000000000007C
(24.080308) oc_vcan_011 120#073300000000007D
(24.100263) oc_vcan_011 100#3E0000000000007E
(24.100350) oc_vcan_011 188#000000000000007F
(24.150359) oc_vcan_011 100#4500000000000080
(24.151945) oc_vcan_011 188#0000000000000081
(24.152036) oc_vcan_011 120#072F000000000082
(24.200219) oc_vcan_011 100#4100000000000083
(24.200295) oc_vcan_011 188#0000000000000084
(24.221292) oc_vcan_011 120#0745000000000085
(24.250241) oc_vcan_011 100#4200000000000086
(24.250356) oc_vcan_011 188#0000000000000087
(24.250423) oc_vcan_011 300#38990F04B7831311
(24.290330) oc_vcan_011 120#0630000000000089
(24.300256) oc_vcan_011 100#490000000000008A
(24.300352) oc_vcan_011 188#000000000000008B
(24.350323) oc_vcan_011 100#3D0000000000008C
(24.350427) oc_vcan_011 188#000000000000008D
(24.360221) oc_vcan_011 120#06ED00000000008E
(24.400313) oc_vcan_011 100#3C0000000000008F
(24.400407) oc_vcan_011 188#0000000000000090
(24.430288) oc_vcan_011 120#05FE000000000091
(24.450299) oc_vcan_011 100#4900000000000092
(24.450416) oc_vcan_011 188#0000000000000093
(24.500313) oc_vcan_011 100#4500000000000094
(24.500421) oc_vcan_011 188#0000000000000095
(24.500492) oc_vcan_011 120#06FC000000000096
(24.500562) oc_vcan_011 300#C17994EAEF937255
(24.550273) oc_vcan_011 100#4100000000000098
(24.550394) oc_vcan_011 188#0000000000000099
(24.570240) oc_vcan_011 120#067300000000009A
(24.600288) oc_vcan_011 100#3C0000000000009B
(24.600387) oc_vcan_011 188#000000000000009C
(24.640226) oc_vcan_011 120#057800000000009D
(24.650273) oc_vcan_011 100#480000000000009E
(24.650370) oc_vcan_011 188#000000000000009F
(24.700325) oc_vcan_011 100#40000000000000A0
(24.700419) oc_vcan_011 188#00000000000000A1
(24.710238) oc_vcan_011 120#066A0000000000A2
(24.750351) oc_vcan_011 100#49000000000000A3
(24.750468) oc_vcan_011 188#00000000000000A4
(24.750531) oc_vcan_011 300#B793D99007036D0F
(24.780232) oc_vcan_011 120#05FA0000000000A6
(24.800246) oc_vcan_011 100#41000000000000A7
(24.800381) oc_vcan_011 188#00000000000000A8
(24.850370) oc_vcan_011 100#3F000000000000A9
(24.850450) oc_vcan_011 188#00000000000000AA
(24.850482) oc_vcan_011 120#06B40000000000AB
(24.900310) oc_vcan_011 100#45000000000000AC
(24.900416) oc_vcan_011 188#00000000000000AD
(24.920346) oc_vcan_011 120#05D30000000000AE
(24.950439) oc_vcan_011 100#40000000000000AF
(24.950608) oc_vcan_011 188#00000000000000B0
(24.990340) oc_vcan_011 120#06190000000000B1
(25.000324) oc_vcan_011 100#3B000000000000B2
(25.000405) oc_vcan_011 188#00000000000000B3
(25.000444) oc_vcan_011 300#530B0F80D4506EC3
(25.050347) oc_vcan_011 100#3F000000000000B5
(25.050444) oc_vcan_011 188#00000000000000B6
(25.060207) oc_vcan_011 120#06020000000000B7
(25.100285) oc_vcan_011 100#3F000000000000B8
(25.100364) oc_vcan_011 188#00000000000000B9
(25.130357) oc_vcan_011 120#069D0000000000BA
(25.150338) oc_vcan_011 100#46000000000000BB
(25.150417) oc_vcan_011 188#00000000000000BC
(25.200271) oc_vcan_011 100#42000000000000BD
(25.200373) oc_vcan_011 188#00000000000000BE
(25.200419) oc_vcan_011 120#05B60000000000BF
(25.250391) oc_vcan_011 100#4B000000000000C0
(25.250491) oc_vcan_011 188#00000000000000C1
(25.250553) oc_vcan_011 300#1CC5DE3B79728A41
(25.270389) oc_vcan_011 120#05E00000000000C3
(25.300303) oc_vcan_011 100#3C000000000000C4
(25.300403) oc_vcan_011 188#00000000000000C5
(25.340260) oc_vcan_011 120#06C80000000000C6
(25.350280) oc_vcan_011 100#48000000000000C7
(25.350352) oc_vcan_011 188#00000000000000C8
(25.400409) oc_vcan_011 100#46000000000000C9
(25.400525) oc_vcan_011 188#00000000000000CA
(25.410322) oc_vcan_011 120#05AE0000000000CB
(25.450330) oc_vcan_011 100#4A000000000000CC
(25.450434) oc_vcan_011 188#00000000000000CD
(25.480391) oc_vcan_011 120#06600000000000CE
(25.500342) oc_vcan_011 100#3B000000000000CF
(25.500447) oc_vcan_011 188#00000000000000D0
(25.500515) oc_vcan_011 300#9AB8585C903010A4
(25.550303) oc_vcan_011 100#47000000000000D2
(25.550421) oc_vcan_011 188#00000000000000D3
(25.550477) oc_vcan_011 120#068B0000000000D4
(25.600246) oc_vcan_011 100#4B000000000000D5
(25.600342) oc_vcan_011 188#00000000000000D6
(25.620301) oc_vcan_011 120#05FF0000000000D7
(25.650322) oc_vcan_011 100#4B000000000000D8
(25.650401) oc_vcan_011 188#00000000000000D9
(25.690327) oc_vcan_011 120#06800000000000DA
(25.700302) oc_vcan_011 100#45000000000000DB
(25.700378) oc_vcan_011 188#00000000000000DC
(25.750336) oc_vcan_011 100#3F000000000000DD
(25.750440) oc_vcan_011 188#00000000000000DE
(25.750498) oc_vcan_011 300#9033D0EB9B8A1AF8
(25.760303) oc_vcan_011 120#060C0000000000E0
(25.800249) oc_vcan_011 100#41000000000000E1
(25.800336) oc_vcan_011 188#00000000000000E2
(25.830317) oc_vcan_011 120#06690000000000E3
(25.850287) oc_vcan_011 100#4A000000000000E4
(25.850415) oc_vcan_011 188#00000000000000E5
(25.900340) oc_vcan_011 100#3D000000000000E6
(25.900436) oc_vcan_011 188#00000000000000E7
(25.900474) oc_vcan_011 120#07140000000000E8
(25.950363) oc_vcan_011 100#3A000000000000E9
(25.950444) oc_vcan_011 188#00000000000000EA
(25.970252) oc_vcan_011 120#06CB0000000000EB
(26.000291) oc_vcan_011 100#3D000000000000EC
(26.000366) oc_vcan_011 188#00000000000000ED
(26.000403) oc_vcan_011 300#0E7E6DBF13B6FA01
(26.040308) oc_vcan_011 120#06A50000000000EF
(26.050273) oc_vcan_011 100#44000000000000F0
(26.050363) oc_vcan_011 188#00000000000000F1
(26.100416) oc_vcan_011 100#47000000000000F2
(26.100490) oc_vcan_011 188#00000000000000F3
(26.110211) oc_vcan_011 120#061E0000000000F4
(26.150272) oc_vcan_011 100#4B000000000000F5
(26.150368) oc_vcan_011 188#00000000000000F6
(26.180283) oc_vcan_011 120#068A0000000000F7
(26.200293) oc_vcan_011 100#4B000000000000F8
(26.200385) oc_vcan_011 188#00000000000000F9
(26.250277) oc_vcan_011 100#46000000000000FA
(26.250355) oc_vcan_011 188#00000000000000FB
(26.250388) oc_vcan_011 120#06FC0000000000FC
(26.250441) oc_vcan_011 300#DDD651423EDA8529
(26.300287) oc_vcan_011 100#4A000000000000FE
(26.300360) oc_vcan_011 188#00000000000000FF
(26.320235) oc_vcan_011 120#0652000000000000
(26.350289) oc_vcan_011 100#4000000000000001
(26.350368) oc_vcan_011 188#0000000000000002
(26.390277) oc_vcan_011 120#0665000000000003
(26.400276) oc_vcan_011 100#3F00000000000004
(26.400359) oc_vcan_011 188#0000000000000005
(26.453290) oc_vcan_011 100#3D00000000000006
(26.453391) oc_vcan_011 188#0000000000000007
(26.460168) oc_vcan_011 120#0738000000000008
(26.500219) oc_vcan_011 100#4B00000000000009
(26.500299) oc_vcan_011 188#000000000000000A
(26.500341) oc_vcan_011 300#7992C896CE921600
(26.530225) oc_vcan_011 120#058900000000000C
(26.550252) oc_vcan_011 100#410000000000000D
(26.550329) oc_vcan_011 188#000000000000000E
(26.600287) oc_vcan_011 100#3B0000000000000F
(26.600386) oc_vcan_011 188#0000000000000010
(26.600440) oc_vcan_011 120#05D5000000000011
(26.650302) oc_vcan_011 100#4000000000000012
(26.650424) oc_vcan_011 188#0000000000000013
(26.670283) oc_vcan_011 120#05D9000000000014
(26.700308) oc_vcan_011 100#4300000000000015
(26.700497) oc_vcan_011 188#0000000000000016
(26.740268) oc_vcan_011 120#06F2000000000017
(26.750282) oc_vcan_011 100#4B00000000000018
(26.750361) oc_vcan_011 188#0000000000000019
(26.750424) oc_vcan_011 300#6FEE8AA233E3B7DB
(26.800246) oc_vcan_011 100#480000000000001B
(26.800360) oc_vcan_011 188#000000000000001C
(26.810247) oc_vcan_011 120#05A000000000001D
(26.850272) oc_vcan_011 100#3E0000000000001E
(26.850345) oc_vcan_011 188#000000000000001F
(26.880266) oc_vcan_011 120#06F9000000000020
(26.900282) oc_vcan_011 100#4400000000000021
(26.900371) oc_vcan_011 188#0000000000000022
(26.950378) oc_vcan_011 100#3B00000000000023
(26.950517) oc_vcan_011 188#0000000000000024
(26.950577) oc_vcan_011 120#0726000000000025
(27.000291) oc_vcan_011 100#4300000000000026
(27.000367) oc_vcan_011 188#0000000000000027
(27.000406) oc_vcan_011 300#FD06EAE9A6787850
(27.020249) oc_vcan_011 120#0649000000000029
(27.050288) oc_vcan_011 100#3C0000000000002A
(27.050370) oc_vcan_011 188#000000000000002B
(27.090272) oc_vcan_011 120#070700000000002C
(27.100275) oc_vcan_011 100#470000000000002D
(27.100385) oc_vcan_011 188#000000000000002E
(27.150246) oc_vcan_011 100#490000000000002F
(27.150342) oc_vcan_011 188#0000000000000030
(27.160200) oc_vcan_011 120#064E000000000031
(27.200257) oc_vcan_011 100#3F00000000000032
(27.200333) oc_vcan_011 188#0000000000000033
(27.230230) oc_vcan_011 120#05F1000000000034
(27.250372) oc_vcan_011 100#4100000000000035
(27.250456) oc_vcan_011 188#0000000000000036
(27.250575) oc_vcan_011 300#4527CED101A04B30
(27.300274) oc_vcan_011 100#3D00000000000038
(27.300352) oc_vcan_011 188#0000000000000039
(27.300410) oc_vcan_011 120#06DC00000000003A
(27.350281) oc_vcan_011 100#400000000000003B
(27.350381) oc_vcan_011 188#000000000000003C
(27.370324) oc_vcan_011 120#068400000000003D
(27.400356) oc_vcan_011 100#470000000000003E
(27.400482) oc_vcan_011 188#000000000000003F
(27.440362) oc_vcan_011 120#073F000000000040
(27.450335) oc_vcan_011 100#3F00000000000041
(27.450432) oc_vcan_011 188#0000000000000042
(27.500318) oc_vcan_011 100#4A00000000000043
(27.500417) oc_vcan_011 188#0000000000000044
(27.500457) oc_vcan_011 300#ACDB0814973051DF
(27.510317) oc_vcan_011 120#0728000000000046
(27.550280) oc_vcan_011 100#3D00000000000047
(27.550389) oc_vcan_011 188#0000000000000048
(27.580323) oc_vcan_011 120#063D000000000049
(27.600228) oc_vcan_011 100#3A0000000000004A
(27.600319) oc_vcan_011 188#000000000000004B
(27.650265) oc_vcan_011 100#460000000000004C
(27.650346) oc_vcan_011 188#000000000000004D
(27.650378) oc_vcan_011 120#059300000000004E
(27.700374) oc_vcan_011 100#490000000000004F
(27.700456) oc_vcan_011 188#0000000000000050
(27.720325) oc_vcan_011 120#06F3000000000051
(27.750303) oc_vcan_011 100#3B00000000000052
(27.750382) oc_vcan_011 188#0000000000000053
(27.750420) oc_vcan_011 300#DD429EEB1AD7C545
(27.790308) oc_vcan_011 120#0615000000000055
(27.800264) oc_vcan_011 100#3A00000000000056
(27.800365) oc_vcan_011 188#0000000000000057
(27.850256) oc_vcan_011 100#3F00000000000058
(27.850333) oc_vcan_011 188#0000000000000059
(27.860282) oc_vcan_011 120#06EA00000000005A
(27.900291) oc_vcan_011 100#3D0000000000005B
(27.900392) oc_vcan_011 188#000000000000005C
(27.930270) oc_vcan_011 120#06E200000000005D
(27.950339) oc_vcan_011 100#3A0000000000005E
(27.950437) oc_vcan_011 188#000000000000005F
(28.000279) oc_vcan_011 100#4500000000000060
(28.000359) oc_vcan_011 188#0000000000000061
(28.000392) oc_vcan_011 120#0664000000000062
(28.000452) oc_vcan_011 300#C4FD65EC1DB52B08
(28.050378) oc_vcan_011 100#3D00000000000064
(28.050507) oc_vcan_011 188#0000000000000065
(28.070309) oc_vcan_011 120#06B1000000000066
(28.100394) oc_vcan_011 100#4600000000000067
(28.100549) oc_vcan_011 188#0000000000000068
(28.140433) oc_vcan_011 120#063A000000000069
(28.150226) oc_vcan_011 100#450000000000006A
(28.150327) oc_vcan_011 188#000000000000006B
(28.200321) oc_vcan_011 100#400000000000006C
(28.200408) oc_vcan_011 188#000000000000006D
(28.210300) oc_vcan_011 120#058D00000000006E
(28.250423) oc_vcan_011 100#470000000000006F
(28.250544) oc_vcan_011 188#0000000000000070
(28.250607) oc_vcan_011 300#FCEED4E5CF4E63E1
(28.280359) oc_vcan_011 120#06DA000000000072
(28.300324) oc_vcan_011 100#4000000000000073
(28.300420) oc_vcan_011 188#0000000000000074
(28.350388) oc_vcan_011 100#4100000000000075
(28.350492) oc_vcan_011 188#0000000000000076
(28.350536) oc_vcan_011 120#0702000000000077
(28.400410) oc_vcan_011 100#4200000000000078
(28.400508) oc_vcan_011 188#0000000000000079
(28.420380) oc_vcan_011 120#057C00000000007A
(28.450311) oc_vcan_011 100#430000000000007B
(28.450411) oc_vcan_011 188#000000000000007C
(28.490384) oc_vcan_011 120#073D00000000007D
(28.500317) oc_vcan_011 100#480000000000007E
(28.500436) oc_vcan_011 188#000000000000007F
(28.500485) oc_vcan_011 300#F90D5EC413F47A99
(28.550338) oc_vcan_011 100#4900000000000081
(28.550441) oc_vcan_011 188#0000000000000082
(28.560315) oc_vcan_011 120#05EB000000000083
(28.600310) oc_vcan_011 100#3C00000000000084
(28.600406) oc_vcan_011 188#0000000000000085
(28.630299) oc_vcan_011 120#0642000000000086
(28.650316) oc_vcan_011 100#3A00000000000087
(28.650420) oc_vcan_011 188#0000000000000088
(28.700234) oc_vcan_011 100#4100000000000089
(28.700312) oc_vcan_011 188#000000000000008A
(28.700345) oc_vcan_011 120#073E00000000008B
(28.752315) oc_vcan_011 100#3C0000000000008C
(28.752417) oc_vcan_011 188#000000000000008D
(28.752476) oc_vcan_011 300#1EDB20296965554A
(28.770198) oc_vcan_011 120#075B00000000008F
(28.800275) oc_vcan_011 100#3A00000000000090
(28.800381) oc_vcan_011 188#0000000000000091
(28.840293) oc_vcan_011 120#06C2000000000092
(28.850249) oc_vcan_011 100#4400000000000093
(28.850328) oc_vcan_011 188#0000000000000094
(28.900253) oc_vcan_011 100#3D00000000000095
(28.900357) oc_vcan_011 188#0000000000000096
(28.910231) oc_vcan_011 120#058D000000000097
(28.950286) oc_vcan_011 100#4100000000000098
(28.950366) oc_vcan_011 188#0000000000000099
(28.980305) oc_vcan_011 120#063B00000000009A
(29.000219) oc_vcan_011 100#3D0000000000009B
(29.000290) oc_vcan_011 188#000000000000009C
(29.000328) oc_vcan_011 300#D65B8C837BC8023B
(29.050282) oc_vcan_011 100#450000000000009E
(29.050380) oc_vcan_011 188#000000000000009F
(29.050534) oc_vcan_011 120#06EF0000000000A0
(29.100273) oc_vcan_011 100#47000000000000A1
(29.100375) oc_vcan_011 188#00000000000000A2
(29.120254) oc_vcan_011 120#06890000000000A3
(29.150257) oc_vcan_011 100#3F000000000000A4
(29.150357) oc_vcan_011 188#00000000000000A5
(29.190324) oc_vcan_011 120#06180000000000A6
(29.200335) oc_vcan_011 100#3B000000000000A7
(29.200433) oc_vcan_011 188#00000000000000A8
(29.250907) oc_vcan_011 100#40000000000000A9
(29.251065) oc_vcan_011 188#00000000000000AA
(29.251147) oc_vcan_011 300#B5DABFD62F2EB3B9
(29.260294) oc_vcan_011 120#06EF0000000000AC
(29.300310) oc_vcan_011 100#3C000000000000AD
(29.300411) oc_vcan_011 188#00000000000000AE
(29.330254) oc_vcan_011 120#06470000000000AF
(29.350348) oc_vcan_011 100#40000000000000B0
(29.350454) oc_vcan_011 188#00000000000000B1
(29.400374) oc_vcan_011 100#41000000000000B2
(29.400481) oc_vcan_011 188#00000000000000B3
(29.400521) oc_vcan_011 120#06A40000000000B4
(29.450360) oc_vcan_011 100#42000000000000B5
(29.450455) oc_vcan_011 188#00000000000000B6
(29.470337) oc_vcan_011 120#05E80000000000B7
(29.500396) oc_vcan_011 100#4B000000000000B8
(29.500529) oc_vcan_011 188#00000000000000B9
(29.500578) oc_vcan_011 300#5EDBAC08AE8B9BC4
(29.540311) oc_vcan_011 120#05BA0000000000BB
(29.550265) oc_vcan_011 100#4A000000000000BC
(29.550357) oc_vcan_011 188#00000000000000BD
(29.600243) oc_vcan_011 100#4B000000000000BE
(29.600346) oc_vcan_011 188#00000000000000BF
(29.610267) oc_vcan_011 120#05A50000000000C0
(29.650304) oc_vcan_011 100#41000000000000C1
(29.650386) oc_vcan_011 188#00000000000000C2
(29.680322) oc_vcan_011 120#06A60000000000C3
(29.700351) oc_vcan_011 100#47000000000000C4
(29.700451) oc_vcan_011 188#00000000000000C5
(29.750306) oc_vcan_011 100#3B000000000000C6
(29.750454) oc_vcan_011 188#00000000000000C7
(29.750510) oc_vcan_011 120#06460000000000C8
(29.750572) oc_vcan_011 300#024E56D379EC62EF
(29.800312) oc_vcan_011 100#3F000000000000CA
(29.800421) oc_vcan_011 188#00000000000000CB
(29.820256) oc_vcan_011 120#066F0000000000CC
(29.850299) oc_vcan_011 100#46000000000000CD
(29.850428) oc_vcan_011 188#00000000000000CE
(29.890282) oc_vcan_011 120#05F20000000000CF
(29.900311) oc_vcan_011 100#47000000000000D0
(29.900420) oc_vcan_011 188#00000000000000D1
(29.950364) oc_vcan_011 100#4B000000000000D2
(29.950476) oc_vcan_011 188#00000000000000D3
(29.960372) oc_vcan_011 120#05D60000000000D4
(30.000354) oc_vcan_011 100#46000000000000D5
