(0.000100) vcan0 100#4300000000000000
(0.000127) vcan0 188#0000000000000001
(0.000136) vcan0 120#073D000000000002
(0.000144) vcan0 300#256B0B0895EA6D3A
(0.050155) vcan0 100#3C00000000000004
(0.050253) vcan0 188#0000000000000005
(0.071509) vcan0 120#063F000000000006
(0.100155) vcan0 100#4500000000000007
(0.100241) vcan0 188#0000000000000008
(0.140103) vcan0 120#0708000000000009
(0.150097) vcan0 100#440000000000000A
(0.150156) vcan0 188#000000000000000B
(0.200143) vcan0 100#460000000000000C
(0.200217) vcan0 188#000000000000000D
(0.210145) vcan0 120#06EE00000000000E
(0.250135) vcan0 100#3C0000000000000F
(0.250208) vcan0 188#0000000000000010
(0.250221) vcan0 300#609240BB764BD9A0
(0.280129) vcan0 120#06AA000000000012
(0.300124) vcan0 100#3E00000000000013
(0.300196) vcan0 188#0000000000000014
(0.350148) vcan0 100#3F00000000000015
(0.350215) vcan0 188#0000000000000016
(0.350223) vcan0 120#0749000000000017
(0.400132) vcan0 100#4200000000000018
(0.400200) vcan0 188#0000000000000019
(0.420138) vcan0 120#073B00000000001A
(0.450128) vcan0 100#3E0000000000001B
(0.450204) vcan0 188#000000000000001C
(0.490115) vcan0 120#05E100000000001D
(0.500130) vcan0 100#400000000000001E
(0.500197) vcan0 188#000000000000001F
(0.500208) vcan0 300#1FEB185E4D310C90
(0.550128) vcan0 100#4700000000000021
(0.550206) vcan0 188#0000000000000022
(0.560101) vcan0 120#06C0000000000023
(0.600150) vcan0 100#4600000000000024
(0.600234) vcan0 188#0000000000000025
(0.630126) vcan0 120#05DE000000000026
(0.650131) vcan0 100#3F00000000000027
(0.650205) vcan0 188#0000000000000028
(0.700112) vcan0 100#4600000000000029
(0.700204) vcan0 188#000000000000002A
(0.700216) vcan0 120#05FC00000000002B
(0.750165) vcan0 100#440000000000002C
(0.750229) vcan0 188#000000000000002D
(0.750236) vcan0 300#CE1514786B831644
(0.770123) vcan0 120#06CF00000000002F
(0.800128) vcan0 100#4200000000000030
(0.800222) vcan0 188#0000000000000031
(0.840116) vcan0 120#0739000000000032
(0.850108) vcan0 100#4000000000000033
(0.850163) vcan0 188#0000000000000034
(0.900115) vcan0 100#4600000000000035
(0.900188) vcan0 188#0000000000000036
(0.910150) vcan0 120#0741000000000037
(0.950113) vcan0 100#4500000000000038
(0.950212) vcan0 188#0000000000000039
(0.980159) vcan0 120#061600000000003A
(1.000111) vcan0 100#3C0000000000003B
(1.000191) vcan0 188#000000000000003C
(1.000232) vcan0 300#29A4844BCFD56018
(1.050148) vcan0 100#440000000000003E
(1.050255) vcan0 188#000000000000003F
(1.050265) vcan0 120#066E000000000040
(1.100099) vcan0 100#4500000000000041
(1.100170) vcan0 188#0000000000000042
(1.120155) vcan0 120#070D000000000043
(1.150130) vcan0 100#4400000000000044
(1.150226) vcan0 188#0000000000000045
(1.190133) vcan0 120#06A7000000000046
(1.200228) vcan0 100#4000000000000047
(1.200316) vcan0 188#0000000000000048
(1.250133) vcan0 100#3D00000000000049
(1.250230) vcan0 188#000000000000004A
(1.250242) vcan0 300#42D5FD6273B21D90
(1.260135) vcan0 120#069000000000004C
(1.300133) vcan0 100#410000000000004D
(1.300227) vcan0 188#000000000000004E
(1.330135) vcan0 120#074F00000000004F
(1.350147) vcan0 100#4600000000000050
(1.350242) vcan0 188#0000000000000051
(1.400160) vcan0 100#3F00000000000052
(1.400266) vcan0 188#0000000000000053
(1.400279) vcan0 120#0681000000000054
(1.450123) vcan0 100#4700000000000055
(1.450203) vcan0 188#0000000000000056
(1.470135) vcan0 120#06EF000000000057
(1.500151) vcan0 100#4300000000000058
(1.500235) vcan0 188#0000000000000059
(1.500243) vcan0 300#94C2409C96565237
(1.540168) vcan0 120#069800000000005B
(1.550111) vcan0 100#430000000000005C
(1.550162) vcan0 188#000000000000005D
(1.600184) vcan0 100#3E0000000000005E
(1.600298) vcan0 188#000000000000005F
(1.610157) vcan0 120#061F000000000060
(1.650176) vcan0 100#4500000000000061
(1.650282) vcan0 188#0000000000000062
(1.680159) vcan0 120#0665000000000063
(1.700131) vcan0 100#4000000000000064
(1.700218) vcan0 188#0000000000000065
(1.750132) vcan0 100#4400000000000066
(1.750215) vcan0 188#0000000000000067
(1.750243) vcan0 120#06A0000000000068
(1.750252) vcan0 300#8EA546269DEDA99B
(1.800128) vcan0 100#460000000000006A
(1.800245) vcan0 188#000000000000006B
(1.820138) vcan0 120#05EF00000000006C
(1.850121) vcan0 100#400000000000006D
(1.850204) vcan0 188#000000000000006E
(1.890136) vcan0 120#05F000000000006F
(1.900133) vcan0 100#4700000000000070
(1.900220) vcan0 188#0000000000000071
(1.950156) vcan0 100#3E00000000000072
(1.950261) vcan0 188#0000000000000073
(1.960147) vcan0 120#065F000000000074
(2.000143) vcan0 100#4200000000000075
(2.000228) vcan0 188#0000000000000076
(2.000238) vcan0 300#7CE516D56B1A19D0
(2.030143) vcan0 120#0650000000000078
(2.050137) vcan0 100#3E00000000000079
(2.050230) vcan0 188#000000000000007A
(2.100154) vcan0 100#400000000000007B
(2.100245) vcan0 188#000000000000007C
(2.100255) vcan0 120#067B00000000007D
(2.150124) vcan0 100#3F0000000000007E
(2.150203) vcan0 188#000000000000007F
(2.170120) vcan0 120#0682000000000080
(2.200117) vcan0 100#3F00000000000081
(2.200211) vcan0 188#0000000000000082
(2.240141) vcan0 120#074D000000000083
(2.250263) vcan0 100#4100000000000084
(2.250363) vcan0 188#0000000000000085
(2.250374) vcan0 300#E17724DD39808D0D
(2.300104) vcan0 100#3C00000000000087
(2.300200) vcan0 188#0000000000000088
(2.310123) vcan0 120#071D000000000089
(2.350149) vcan0 100#3D0000000000008A
(2.350253) vcan0 188#000000000000008B
(2.380112) vcan0 120#074400000000008C
(2.400106) vcan0 100#440000000000008D
(2.400182) vcan0 188#000000000000008E
(2.450098) vcan0 100#3D0000000000008F
(2.450191) vcan0 188#0000000000000090
(2.450201) vcan0 120#069F000000000091
(2.500095) vcan0 100#4700000000000092
(2.500183) vcan0 188#0000000000000093
(2.500192) vcan0 300#A1435B3832EEF465
(2.520061) vcan0 120#0732000000000095
(2.550158) vcan0 100#4500000000000096
(2.550252) vcan0 188#0000000000000097
(2.590132) vcan0 120#06C3000000000098
(2.600130) vcan0 100#4600000000000099
(2.600224) vcan0 188#000000000000009A
(2.650178) vcan0 100#3D0000000000009B
(2.650266) vcan0 188#000000000000009C
(2.660108) vcan0 120#062B00000000009D
(2.700107) vcan0 100#400000000000009E
(2.700210) vcan0 188#000000000000009F
(2.730130) vcan0 120#06960000000000A0
(2.750121) vcan0 100#3F000000000000A1
(2.750203) vcan0 188#00000000000000A2
(2.750212) vcan0 300#01BD8388109B7B9C
(2.800119) vcan0 100#41000000000000A4
(2.800253) vcan0 188#00000000000000A5
(2.800264) vcan0 120#06700000000000A6
(2.850142) vcan0 100#44000000000000A7
(2.850240) vcan0 188#00000000000000A8
(2.870147) vcan0 120#06590000000000A9
(2.900110) vcan0 100#3F000000000000AA
(2.900200) vcan0 188#00000000000000AB
(2.940175) vcan0 120#06FB0000000000AC
(2.950147) vcan0 100#3D000000000000AD
(2.950221) vcan0 188#00000000000000AE
(3.000116) vcan0 100#44000000000000AF
(3.000195) vcan0 188#00000000000000B0
(3.000203) vcan0 300#C89554BF61B066AF
(3.010148) vcan0 120#06EA0000000000B2
(3.050115) vcan0 100#47000000000000B3
(3.050193) vcan0 188#00000000000000B4
(3.080133) vcan0 120#066C0000000000B5
(3.100173) vcan0 100#3C000000000000B6
(3.100299) vcan0 188#00000000000000B7
(3.150139) vcan0 100#40000000000000B8
(3.150251) vcan0 188#00000000000000B9
(3.150263) vcan0 120#07120000000000BA
(3.200151) vcan0 100#45000000000000BB
(3.200237) vcan0 188#00000000000000BC
(3.220161) vcan0 120#06220000000000BD
(3.250149) vcan0 100#41000000000000BE
(3.250239) vcan0 188#00000000000000BF
(3.250250) vcan0 300#9C6E5E7DA9DFF3F8
(3.290174) vcan0 120#072E0000000000C1
(3.300132) vcan0 100#40000000000000C2
(3.300224) vcan0 188#00000000000000C3
(3.350157) vcan0 100#40000000000000C4
(3.350268) vcan0 188#00000000000000C5
(3.360133) vcan0 120#06750000000000C6
(3.400160) vcan0 100#40000000000000C7
(3.400258) vcan0 188#00000000000000C8
(3.430132) vcan0 120#06850000000000C9
(3.450149) vcan0 100#3C000000000000CA
(3.450251) vcan0 188#00000000000000CB
(3.500168) vcan0 100#47000000000000CC
(3.500275) vcan0 188#00000000000000CD
(3.500286) vcan0 120#06460000000000CE
(3.500298) vcan0 300#1623E86215AF529D
(3.550148) vcan0 100#40000000000000D0
(3.550270) vcan0 188#00000000000000D1
(3.570152) vcan0 120#06DC0000000000D2
(3.600171) vcan0 100#42000000000000D3
(3.600274) vcan0 188#00000000000000D4
(3.640159) vcan0 120#07250000000000D5
(3.650115) vcan0 100#3D000000000000D6
(3.650188) vcan0 188#00000000000000D7
(3.700128) vcan0 100#44000000000000D8
(3.700232) vcan0 188#00000000000000D9
(3.710105) vcan0 120#07280000000000DA
(3.750106) vcan0 100#46000000000000DB
(3.750173) vcan0 188#00000000000000DC
(3.750181) vcan0 300#0DCF3DBD63CB710B
(3.780122) vcan0 120#06470000000000DE
(3.800145) vcan0 100#3C000000000000DF
(3.800225) vcan0 188#00000000000000E0
(3.850148) vcan0 100#44000000000000E1
(3.850303) vcan0 188#00000000000000E2
(3.850314) vcan0 120#06B90000000000E3
(3.900116) vcan0 100#46000000000000E4
(3.900203) vcan0 188#00000000000000E5
(3.920118) vcan0 120#06000000000000E6
(3.950134) vcan0 100#43000000000000E7
(3.950215) vcan0 188#00000000000000E8
(3.990131) vcan0 120#072E0000000000E9
(4.000130) vcan0 100#3F000000000000EA
(4.000217) vcan0 188#00000000000000EB
(4.000228) vcan0 300#44646DD403AED2B6
(4.050131) vcan0 100#41000000000000ED
(4.050225) vcan0 188#00000000000000EE
(4.060163) vcan0 120#06620000000000EF
(4.100151) vcan0 100#3F000000000000F0
(4.100232) vcan0 188#00000000000000F1
(4.130123) vcan0 120#06C30000000000F2
(4.150167) vcan0 100#41000000000000F3
(4.150270) vcan0 188#00000000000000F4
(4.200197) vcan0 100#47000000000000F5
(4.200304) vcan0 188#00000000000000F6
(4.200319) vcan0 120#073E0000000000F7
(4.250217) vcan0 100#40000000000000F8
(4.250321) vcan0 188#00000000000000F9
(4.250336) vcan0 300#D0F7FE2815EB00B4
(4.270160) vcan0 120#06B70000000000FB
(4.300160) vcan0 100#3D000000000000FC
(4.300260) vcan0 188#00000000000000FD
(4.340156) vcan0 120#07150000000000FE
(4.350142) vcan0 100#47000000000000FF
(4.350242) vcan0 188#0000000000000000
(4.400113) vcan0 100#3F00000000000001
(4.400190) vcan0 188#0000000000000002
(4.410107) vcan0 120#06B3000000000003
(4.450138) vcan0 100#3E00000000000004
(4.450217) vcan0 188#0000000000000005
(4.480111) vcan0 120#0739000000000006
(4.500132) vcan0 100#4700000000000007
(4.500203) vcan0 188#0000000000000008
(4.500212) vcan0 300#63800CB23BA81EA4
(4.550178) vcan0 100#3E0000000000000A
(4.550280) vcan0 188#000000000000000B
(4.550293) vcan0 120#06DB00000000000C
(4.600130) vcan0 100#3C0000000000000D
(4.600234) vcan0 188#000000000000000E
(4.621526) vcan0 120#068900000000000F
(4.650091) vcan0 100#3C00000000000010
(4.650168) vcan0 188#0000000000000011
(4.690160) vcan0 120#0718000000000012
(4.700103) vcan0 100#4600000000000013
(4.700203) vcan0 188#0000000000000014
(4.750132) vcan0 100#4600000000000015
(4.750239) vcan0 188#0000000000000016
(4.750251) vcan0 300#FD99A1D248490F68
(4.760150) vcan0 120#0619000000000018
(4.800148) vcan0 100#4400000000000019
(4.800230) vcan0 188#000000000000001A
(4.830160) vcan0 120#063F00000000001B
(4.850104) vcan0 100#3F0000000000001C
(4.850164) vcan0 188#000000000000001D
(4.900130) vcan0 100#410000000000001E
(4.900214) vcan0 188#000000000000001F
(4.900223) vcan0 120#072E000000000020
(4.950108) vcan0 100#4000000000000021
(4.950184) vcan0 188#0000000000000022
(4.970153) vcan0 120#0704000000000023
(5.000121) vcan0 100#4600000000000024
(5.000210) vcan0 188#0000000000000025
(5.000219) vcan0 300#6B6156B529739EE2
(5.040115) vcan0 120#05E2000000000027
(5.050098) vcan0 100#4000000000000028
(5.050154) vcan0 188#0000000000000029
(5.100114) vcan0 100#400000000000002A
(5.100210) vcan0 188#000000000000002B
(5.110106) vcan0 120#05EA00000000002C
(5.150119) vcan0 100#3E0000000000002D
(5.150196) vcan0 188#000000000000002E
(5.180103) vcan0 120#072D00000000002F
(5.200106) vcan0 100#4300000000000030
(5.200180) vcan0 188#0000000000000031
(5.250214) vcan0 100#4300000000000032
(5.250309) vcan0 188#0000000000000033
(5.250319) vcan0 120#0769000000000034
(5.250331) vcan0 300#0EBFF14AA44761C7
(5.300169) vcan0 100#4300000000000036
(5.300271) vcan0 188#0000000000000037
(5.320121) vcan0 120#074F000000000038
(5.350110) vcan0 100#4000000000000039
(5.350194) vcan0 188#000000000000003A
(5.390130) vcan0 120#062D00000000003B
(5.400116) vcan0 100#3D0000000000003C
(5.400181) vcan0 188#000000000000003D
(5.450138) vcan0 100#420000000000003E
(5.450237) vcan0 188#000000000000003F
(5.460114) vcan0 120#0643000000000040
(5.500101) vcan0 100#3C00000000000041
(5.500172) vcan0 188#0000000000000042
(5.500181) vcan0 300#CB80CF0EF7A97CD5
(5.530114) vcan0 120#075B000000000044
(5.550117) vcan0 100#4500000000000045
(5.550202) vcan0 188#0000000000000046
(5.600116) vcan0 100#3D00000000000047
(5.600199) vcan0 188#0000000000000048
(5.600207) vcan0 120#05EA000000000049
(5.650113) vcan0 100#460000000000004A
(5.650235) vcan0 188#000000000000004B
(5.670117) vcan0 120#06BA00000000004C
(5.700115) vcan0 100#440000000000004D
(5.700216) vcan0 188#000000000000004E
(5.740107) vcan0 120#063900000000004F
(5.750108) vcan0 100#4200000000000050
(5.750185) vcan0 188#0000000000000051
(5.750194) vcan0 300#6819B601BBDD8DED
(5.800161) vcan0 100#4300000000000053
(5.800267) vcan0 188#0000000000000054
(5.810122) vcan0 120#0707000000000055
(5.850116) vcan0 100#4200000000000056
(5.850203) vcan0 188#0000000000000057
(5.880123) vcan0 120#0652000000000058
(5.900132) vcan0 100#3C00000000000059
(5.900215) vcan0 188#000000000000005A
(5.950101) vcan0 100#3E0000000000005B
(5.950198) vcan0 188#000000000000005C
(5.950206) vcan0 120#06B300000000005D
(6.000103) vcan0 100#420000000000005E
(6.000205) vcan0 188#000000000000005F
(6.000216) vcan0 300#97F0E0500646B7C1
(6.020094) vcan0 120#073B000000000061
(6.050103) vcan0 100#3D00000000000062
(6.050165) vcan0 188#0000000000000063
(6.090110) vcan0 120#0656000000000064
(6.100091) vcan0 100#4400000000000065
(6.100122) vcan0 188#0000000000000066
(6.150118) vcan0 100#3C00000000000067
(6.150219) vcan0 188#0000000000000068
(6.160129) vcan0 120#071E000000000069
(6.200112) vcan0 100#470000000000006A
(6.200189) vcan0 188#000000000000006B
(6.230110) vcan0 120#075A00000000006C
(6.250122) vcan0 100#3F0000000000006D
(6.250198) vcan0 188#000000000000006E
(6.250224) vcan0 300#ABCA2DA529CB3380
(6.300153) vcan0 100#4100000000000070
(6.300250) vcan0 188#0000000000000071
(6.300263) vcan0 120#0654000000000072
(6.350146) vcan0 100#4100000000000073
(6.350232) vcan0 188#0000000000000074
(6.370139) vcan0 120#06F6000000000075
(6.400183) vcan0 100#4100000000000076
(6.400292) vcan0 188#0000000000000077
(6.440122) vcan0 120#0663000000000078
(6.450116) vcan0 100#3C00000000000079
(6.450188) vcan0 188#000000000000007A
(6.500134) vcan0 100#3C0000000000007B
(6.500239) vcan0 188#000000000000007C
(6.500269) vcan0 300#1262249BEFF2AFBE
(6.510105) vcan0 120#06F300000000007E
(6.550134) vcan0 100#420000000000007F
(6.550220) vcan0 188#0000000000000080
(6.580151) vcan0 120#06D4000000000081
(6.600158) vcan0 100#4500000000000082
(6.600262) vcan0 188#0000000000000083
(6.650109) vcan0 100#4300000000000084
(6.650217) vcan0 188#0000000000000085
(6.650228) vcan0 120#06AB000000000086
(6.700143) vcan0 100#4700000000000087
(6.700247) vcan0 188#0000000000000088
(6.720153) vcan0 120#075C000000000089
(6.750124) vcan0 100#470000000000008A
(6.750234) vcan0 188#000000000000008B
(6.750248) vcan0 300#9BCA95548C96070F
(6.791509) vcan0 120#061F00000000008D
(6.800104) vcan0 100#420000000000008E
(6.800203) vcan0 188#000000000000008F
(6.850095) vcan0 100#3F00000000000090
(6.850178) vcan0 188#0000000000000091
(6.860093) vcan0 120#0694000000000092
(6.900236) vcan0 100#4200000000000093
(6.900341) vcan0 188#0000000000000094
(6.930118) vcan0 120#0741000000000095
(6.950106) vcan0 100#4200000000000096
(6.950194) vcan0 188#0000000000000097
(7.000210) vcan0 100#3F00000000000098
(7.000312) vcan0 188#0000000000000099
(7.000325) vcan0 120#05E300000000009A
(7.000339) vcan0 300#6AD9CF3899BF4EC5
(7.050098) vcan0 100#3F0000000000009C
(7.050189) vcan0 188#000000000000009D
(7.070186) vcan0 120#060A00000000009E
(7.100112) vcan0 100#410000000000009F
(7.100209) vcan0 188#00000000000000A0
(7.140109) vcan0 120#07090000000000A1
(7.150104) vcan0 100#3F000000000000A2
(7.150199) vcan0 188#00000000000000A3
(7.200137) vcan0 100#44000000000000A4
(7.200224) vcan0 188#00000000000000A5
(7.210145) vcan0 120#05F10000000000A6
(7.250133) vcan0 100#3D000000000000A7
(7.250241) vcan0 188#00000000000000A8
(7.250253) vcan0 300#5017E19AA0B499A2
(7.280114) vcan0 120#06B10000000000AA
(7.300104) vcan0 100#3C000000000000AB
(7.300196) vcan0 188#00000000000000AC
(7.350147) vcan0 100#43000000000000AD
(7.350254) vcan0 188#00000000000000AE
(7.350360) vcan0 120#06820000000000AF
(7.400120) vcan0 100#47000000000000B0
(7.400207) vcan0 188#00000000000000B1
(7.420102) vcan0 120#06490000000000B2
(7.450136) vcan0 100#42000000000000B3
(7.450234) vcan0 188#00000000000000B4
(7.490142) vcan0 120#062E0000000000B5
(7.500162) vcan0 100#3C000000000000B6
(7.500298) vcan0 188#00000000000000B7
(7.500310) vcan0 300#9455E70A6264C4B5
(7.550112) vcan0 100#41000000000000B9
(7.550190) vcan0 188#00000000000000BA
(7.560154) vcan0 120#061F0000000000BB
(7.600118) vcan0 100#41000000000000BC
(7.600200) vcan0 188#00000000000000BD
(7.630140) vcan0 120#06950000000000BE
(7.650106) vcan0 100#46000000000000BF
(7.650170) vcan0 188#00000000000000C0
(7.700202) vcan0 100#42000000000000C1
(7.700303) vcan0 188#00000000000000C2
(7.700349) vcan0 120#05F90000000000C3
(7.750116) vcan0 100#42000000000000C4
(7.750192) vcan0 188#00000000000000C5
(7.750202) vcan0 300#88A018EBD6A7DA98
(7.770189) vcan0 120#06FE0000000000C7
(7.800113) vcan0 100#40000000000000C8
(7.800204) vcan0 188#00000000000000C9
(7.840115) vcan0 120#07490000000000CA
(7.850112) vcan0 100#42000000000000CB
(7.850194) vcan0 188#00000000000000CC
(7.900112) vcan0 100#44000000000000CD
(7.900210) vcan0 188#00000000000000CE
(7.910127) vcan0 120#06F10000000000CF
(7.950185) vcan0 100#40000000000000D0
(7.950290) vcan0 188#00000000000000D1
(7.980315) vcan0 120#06F50000000000D2
(8.000145) vcan0 100#40000000000000D3
(8.000248) vcan0 188#00000000000000D4
(8.000258) vcan0 300#E262AE1647F2CD91
(8.050145) vcan0 100#3D000000000000D6
(8.050268) vcan0 188#00000000000000D7
(8.050282) vcan0 120#070E0000000000D8
(8.100115) vcan0 100#47000000000000D9
(8.100200) vcan0 188#00000000000000DA
(8.120114) vcan0 120#06D30000000000DB
(8.150186) vcan0 100#41000000000000DC
(8.150266) vcan0 188#00000000000000DD
(8.190096) vcan0 120#072E0000000000DE
(8.200102) vcan0 100#40000000000000DF
(8.200196) vcan0 188#00000000000000E0
(8.250186) vcan0 100#43000000000000E1
(8.250273) vcan0 188#00000000000000E2
(8.250282) vcan0 300#F0F39B6F81399878
(8.260127) vcan0 120#06110000000000E4
(8.300145) vcan0 100#3C000000000000E5
(8.300247) vcan0 188#00000000000000E6
(8.330167) vcan0 120#073E0000000000E7
(8.350201) vcan0 100#46000000000000E8
(8.350306) vcan0 188#00000000000000E9
(8.400150) vcan0 100#3C000000000000EA
(8.400235) vcan0 188#00000000000000EB
(8.400253) vcan0 120#071B0000000000EC
(8.450104) vcan0 100#3F000000000000ED
(8.450240) vcan0 188#00000000000000EE
(8.470127) vcan0 120#07260000000000EF
(8.500112) vcan0 100#41000000000000F0
(8.500188) vcan0 188#00000000000000F1
(8.500195) vcan0 300#DF56197908CFBA41
(8.540130) vcan0 120#06F30000000000F3
(8.550139) vcan0 100#42000000000000F4
(8.550234) vcan0 188#00000000000000F5
(8.600177) vcan0 100#41000000000000F6
(8.600292) vcan0 188#00000000000000F7
(8.610140) vcan0 120#07240000000000F8
(8.650132) vcan0 100#44000000000000F9
(8.650233) vcan0 188#00000000000000FA
(8.680169) vcan0 120#05F90000000000FB
(8.700154) vcan0 100#45000000000000FC
(8.700351) vcan0 188#00000000000000FD
(8.750121) vcan0 100#3C000000000000FE
(8.750209) vcan0 188#00000000000000FF
(8.750217) vcan0 120#05F0000000000000
(8.750226) vcan0 300#824EA8624E8F357F
(8.800111) vcan0 100#4000000000000002
(8.800193) vcan0 188#0000000000000003
(8.820135) vcan0 120#0726000000000004
(8.850128) vcan0 100#4700000000000005
(8.850220) vcan0 188#0000000000000006
(8.890122) vcan0 120#0660000000000007
(8.900118) vcan0 100#4300000000000008
(8.900186) vcan0 188#0000000000000009
(8.950151) vcan0 100#440000000000000A
(8.950364) vcan0 188#000000000000000B
(8.960262) vcan0 120#069200000000000C
(9.000115) vcan0 100#420000000000000D
(9.000195) vcan0 188#000000000000000E
(9.000206) vcan0 300#87A2874096D21986
(9.030124) vcan0 120#0748000000000010
(9.050119) vcan0 100#4500000000000011
(9.050209) vcan0 188#0000000000000012
(9.100126) vcan0 100#4300000000000013
(9.100226) vcan0 188#0000000000000014
(9.100236) vcan0 120#06D7000000000015
(9.151510) vcan0 100#4700000000000016
(9.151594) vcan0 188#0000000000000017
(9.170089) vcan0 120#068C000000000018
(9.200101) vcan0 100#3C00000000000019
(9.200191) vcan0 188#000000000000001A
(9.240131) vcan0 120#061500000000001B
(9.250125) vcan0 100#3F0000000000001C
(9.250219) vcan0 188#000000000000001D
(9.250229) vcan0 300#3CE0D423AA6AA93D
(9.300118) vcan0 100#3D0000000000001F
(9.300200) vcan0 188#0000000000000020
(9.310121) vcan0 120#0666000000000021
(9.350126) vcan0 100#4500000000000022
(9.350234) vcan0 188#0000000000000023
(9.380126) vcan0 120#06D4000000000024
(9.400121) vcan0 100#4300000000000025
(9.400220) vcan0 188#0000000000000026
(9.450254) vcan0 100#3F00000000000027
(9.450336) vcan0 188#0000000000000028
(9.450344) vcan0 120#0757000000000029
(9.500119) vcan0 100#460000000000002A
(9.500221) vcan0 188#000000000000002B
(9.500232) vcan0 300#463E7F3C6B0FA6B3
(9.520115) vcan0 120#071500000000002D
(9.550104) vcan0 100#470000000000002E
(9.550203) vcan0 188#000000000000002F
(9.590174) vcan0 120#0613000000000030
(9.600107) vcan0 100#4600000000000031
(9.600151) vcan0 188#0000000000000032
(9.650112) vcan0 100#4000000000000033
(9.650191) vcan0 188#0000000000000034
(9.660192) vcan0 120#0767000000000035
(9.700114) vcan0 100#3E00000000000036
(9.700186) vcan0 188#0000000000000037
(9.730112) vcan0 120#05E6000000000038
(9.750143) vcan0 100#3D00000000000039
(9.750228) vcan0 188#000000000000003A
(9.750241) vcan0 300#47BC1663C9063D49
(9.800106) vcan0 100#440000000000003C
(9.800164) vcan0 188#000000000000003D
(9.800171) vcan0 120#069A00000000003E
(9.850109) vcan0 100#3C0000000000003F
(9.850172) vcan0 188#0000000000000040
(9.870109) vcan0 120#0708000000000041
(9.900112) vcan0 100#4300000000000042
(9.900185) vcan0 188#0000000000000043
(9.940108) vcan0 120#0682000000000044
(9.950099) vcan0 100#4000000000000045
(9.950167) vcan0 188#0000000000000046
(10.000114) vcan0 100#3F00000000000047
(10.000195) vcan0 188#0000000000000048
(10.000206) vcan0 300#16D2A59CAD6CD6F3
(10.010106) vcan0 120#075F00000000004A
(10.050112) vcan0 100#450000000000004B
(10.050203) vcan0 188#000000000000004C
(10.080134) vcan0 120#060200000000004D
(10.100131) vcan0 100#3D0000000000004E
(10.100211) vcan0 188#000000000000004F
(10.150132) vcan0 100#3C00000000000050
(10.150227) vcan0 188#0000000000000051
(10.150238) vcan0 120#062B000000000052
(10.200099) vcan0 100#4700000000000053
(10.200175) vcan0 188#0000000000000054
(10.220119) vcan0 120#075C000000000055
(10.250105) vcan0 100#4300000000000056
(10.250178) vcan0 188#0000000000000057
(10.250186) vcan0 300#63F6A08738A73D2E
(10.290106) vcan0 120#068F000000000059
(10.300089) vcan0 100#460000000000005A
(10.300184) vcan0 188#000000000000005B
(10.350135) vcan0 100#410000000000005C
(10.350207) vcan0 188#000000000000005D
(10.360122) vcan0 120#06E700000000005E
(10.400125) vcan0 100#470000000000005F
(10.400224) vcan0 188#0000000000000060
(10.430095) vcan0 120#0748000000000061
(10.450098) vcan0 100#4100000000000062
(10.450183) vcan0 188#0000000000000063
(10.500111) vcan0 100#4100000000000064
(10.500277) vcan0 188#0000000000000065
(10.500289) vcan0 120#0689000000000066
(10.500300) vcan0 300#EEB0302C4E4D94AE
(10.550146) vcan0 100#4300000000000068
(10.550236) vcan0 188#0000000000000069
(10.570180) vcan0 120#065100000000006A
(10.600142) vcan0 100#410000000000006B
(10.600242) vcan0 188#000000000000006C
(10.640138) vcan0 120#067C00000000006D
(10.650115) vcan0 100#440000000000006E
(10.650197) vcan0 188#000000000000006F
(10.700118) vcan0 100#4600000000000070
(10.700198) vcan0 188#0000000000000071
(10.710122) vcan0 120#061D000000000072
(10.750106) vcan0 100#4700000000000073
(10.750201) vcan0 188#0000000000000074
(10.750215) vcan0 300#B1541C3589396616
(10.780137) vcan0 120#073E000000000076
(10.800093) vcan0 100#4200000000000077
(10.800156) vcan0 188#0000000000000078
(10.850112) vcan0 100#4600000000000079
(10.850187) vcan0 188#000000000000007A
(10.850196) vcan0 120#063700000000007B
(10.900123) vcan0 100#3D0000000000007C
(10.900201) vcan0 188#000000000000007D
(10.920108) vcan0 120#064000000000007E
(10.950196) vcan0 100#430000000000007F
(10.950311) vcan0 188#0000000000000080
(10.990155) vcan0 120#0620000000000081
(11.000113) vcan0 100#4100000000000082
(11.000188) vcan0 188#0000000000000083
(11.000285) vcan0 300#A5BDAF02A38DE40B
(11.050123) vcan0 100#4600000000000085
(11.050253) vcan0 188#0000000000000086
(11.060140) vcan0 120#0730000000000087
(11.100114) vcan0 100#3E00000000000088
(11.100193) vcan0 188#0000000000000089
(11.130144) vcan0 120#060500000000008A
(11.150104) vcan0 100#410000000000008B
(11.150191) vcan0 188#000000000000008C
(11.200113) vcan0 100#3D0000000000008D
(11.200192) vcan0 188#000000000000008E
(11.200200) vcan0 120#06ED00000000008F
(11.250131) vcan0 100#4200000000000090
(11.250236) vcan0 188#0000000000000091
(11.250251) vcan0 300#CAD47AAFD2BE1B6A
(11.270138) vcan0 120#05F4000000000093
(11.300115) vcan0 100#4400000000000094
(11.300194) vcan0 188#0000000000000095
(11.340162) vcan0 120#06C7000000000096
(11.350154) vcan0 100#4500000000000097
(11.350259) vcan0 188#0000000000000098
(11.402504) vcan0 100#4700000000000099
(11.402593) vcan0 188#000000000000009A
(11.410085) vcan0 120#068A00000000009B
(11.450151) vcan0 100#3F0000000000009C
(11.450226) vcan0 188#000000000000009D
(11.480116) vcan0 120#072300000000009E
(11.500226) vcan0 100#430000000000009F
(11.500359) vcan0 188#00000000000000A0
(11.500371) vcan0 300#5AB6E9013493D61C
(11.550108) vcan0 100#43000000000000A2
(11.550186) vcan0 188#00000000000000A3
(11.550206) vcan0 120#06760000000000A4
(11.600226) vcan0 100#42000000000000A5
(11.600317) vcan0 188#00000000000000A6
(11.620112) vcan0 120#07270000000000A7
(11.650150) vcan0 100#41000000000000A8
(11.650231) vcan0 188#00000000000000A9
(11.690125) vcan0 120#06640000000000AA
(11.700127) vcan0 100#47000000000000AB
(11.700201) vcan0 188#00000000000000AC
(11.750110) vcan0 100#41000000000000AD
(11.750196) vcan0 188#00000000000000AE
(11.750204) vcan0 300#1A3C7A4B82DEC5EB
(11.760118) vcan0 120#065F0000000000B0
(11.800107) vcan0 100#3C000000000000B1
(11.800185) vcan0 188#00000000000000B2
(11.830156) vcan0 120#06020000000000B3
(11.850119) vcan0 100#42000000000000B4
(11.850220) vcan0 188#00000000000000B5
(11.900173) vcan0 100#47000000000000B6
(11.900277) vcan0 188#00000000000000B7
(11.900293) vcan0 120#069F0000000000B8
(11.950158) vcan0 100#45000000000000B9
(11.950245) vcan0 188#00000000000000BA
(11.970155) vcan0 120#076B0000000000BB
(12.000151) vcan0 100#45000000000000BC
(12.000240) vcan0 188#00000000000000BD
(12.000249) vcan0 300#47E2A654F655174A
(12.040148) vcan0 120#06BA0000000000BF
(12.050129) vcan0 100#42000000000000C0
(12.050227) vcan0 188#00000000000000C1
(12.100146) vcan0 100#3F000000000000C2
(12.100235) vcan0 188#00000000000000C3
(12.110120) vcan0 120#06060000000000C4
(12.150142) vcan0 100#3E000000000000C5
(12.150226) vcan0 188#00000000000000C6
(12.180143) vcan0 120#063C0000000000C7
(12.200137) vcan0 100#41000000000000C8
(12.200224) vcan0 188#00000000000000C9
(12.250124) vcan0 100#47000000000000CA
(12.250228) vcan0 188#00000000000000CB
(12.250241) vcan0 120#05FD0000000000CC
(12.250252) vcan0 300#6735B14DF7E65D3B
(12.300125) vcan0 100#47000000000000CE
(12.300202) vcan0 188#00000000000000CF
(12.320144) vcan0 120#06010000000000D0
(12.350126) vcan0 100#46000000000000D1
(12.350210) vcan0 188#00000000000000D2
(12.390141) vcan0 120#05ED0000000000D3
(12.400142) vcan0 100#41000000000000D4
(12.400232) vcan0 188#00000000000000D5
(12.450112) vcan0 100#3F000000000000D6
(12.450188) vcan0 188#00000000000000D7
(12.460091) vcan0 120#072A0000000000D8
(12.500110) vcan0 100#47000000000000D9
(12.500190) vcan0 188#00000000000000DA
(12.500200) vcan0 300#AD06B30FACEE41D0
(12.530113) vcan0 120#06520000000000DC
(12.550113) vcan0 100#3C000000000000DD
(12.550212) vcan0 188#00000000000000DE
(12.600131) vcan0 100#47000000000000DF
(12.600228) vcan0 188#00000000000000E0
(12.600236) vcan0 120#063E0000000000E1
(12.650133) vcan0 100#3F000000000000E2
(12.650217) vcan0 188#00000000000000E3
(12.670128) vcan0 120#072A0000000000E4
(12.700095) vcan0 100#45000000000000E5
(12.700171) vcan0 188#00000000000000E6
(12.740119) vcan0 120#06990000000000E7
(12.750118) vcan0 100#43000000000000E8
(12.750186) vcan0 188#00000000000000E9
(12.750195) vcan0 300#E5C2A409EB109718
(12.800108) vcan0 100#42000000000000EB
(12.800180) vcan0 188#00000000000000EC
(12.810141) vcan0 120#05F90000000000ED
(12.850112) vcan0 100#3F000000000000EE
(12.850184) vcan0 188#00000000000000EF
(12.880130) vcan0 120#07500000000000F0
(12.900153) vcan0 100#42000000000000F1
(12.900246) vcan0 188#00000000000000F2
(12.950112) vcan0 100#3F000000000000F3
(12.950193) vcan0 188#00000000000000F4
(12.950225) vcan0 120#06470000000000F5
(13.000139) vcan0 100#3D000000000000F6
(13.000232) vcan0 188#00000000000000F7
(13.000263) vcan0 300#CDCED5E4F850A008
(13.020135) vcan0 120#065B0000000000F9
(13.050188) vcan0 100#47000000000000FA
(13.050314) vcan0 188#00000000000000FB
(13.090151) vcan0 120#072A0000000000FC
(13.100127) vcan0 100#3F000000000000FD
(13.100214) vcan0 188#00000000000000FE
(13.150130) vcan0 100#45000000000000FF
(13.150256) vcan0 188#0000000000000000
(13.160118) vcan0 120#0643000000000001
(13.200150) vcan0 100#4100000000000002
(13.200255) vcan0 188#0000000000000003
(13.230204) vcan0 120#061B000000000004
(13.250119) vcan0 100#3E00000000000005
(13.250192) vcan0 188#0000000000000006
(13.250200) vcan0 300#BDE5C15D8956246C
(13.300119) vcan0 100#3D00000000000008
(13.300213) vcan0 188#0000000000000009
(13.300254) vcan0 120#076100000000000A
(13.350137) vcan0 100#3C0000000000000B
(13.350229) vcan0 188#000000000000000C
(13.370111) vcan0 120#060700000000000D
(13.400178) vcan0 100#3E0000000000000E
(13.400319) vcan0 188#000000000000000F
(13.440144) vcan0 120#0612000000000010
(13.450143) vcan0 100#4400000000000011
(13.450239) vcan0 188#0000000000000012
(13.500178) vcan0 100#4400000000000013
(13.500275) vcan0 188#0000000000000014
(13.500294) vcan0 300#804F0A4F0EA67155
(13.510126) vcan0 120#0636000000000016
(13.550111) vcan0 100#4000000000000017
(13.550195) vcan0 188#0000000000000018
(13.580510) vcan0 120#066C000000000019
(13.600096) vcan0 100#3E0000000000001A
(13.600183) vcan0 188#000000000000001B
(13.650109) vcan0 100#470000000000001C
(13.650200) vcan0 188#000000000000001D
(13.650208) vcan0 120#061200000000001E
(13.700170) vcan0 100#460000000000001F
(13.700266) vcan0 188#0000000000000020
(13.720131) vcan0 120#06C5000000000021
(13.750127) vcan0 100#4700000000000022
(13.750222) vcan0 188#0000000000000023
(13.750234) vcan0 300#888F138B843C0F72
(13.790211) vcan0 120#073C000000000025
(13.800108) vcan0 100#4100000000000026
(13.800169) vcan0 188#0000000000000027
(13.850178) vcan0 100#4000000000000028
(13.850280) vcan0 188#0000000000000029
(13.860178) vcan0 120#060900000000002A
(13.900180) vcan0 100#470000000000002B
(13.900266) vcan0 188#000000000000002C
(13.930143) vcan0 120#064B00000000002D
(13.950179) vcan0 100#460000000000002E
(13.950297) vcan0 188#000000000000002F
(14.000171) vcan0 100#3F00000000000030
(14.000263) vcan0 188#0000000000000031
(14.000271) vcan0 120#06D3000000000032
(14.000281) vcan0 300#A935ED71EB93CFBA
(14.050194) vcan0 100#4500000000000034
(14.050286) vcan0 188#0000000000000035
(14.070189) vcan0 120#0752000000000036
(14.100161) vcan0 100#4600000000000037
(14.100271) vcan0 188#0000000000000038
(14.140189) vcan0 120#0761000000000039
(14.150156) vcan0 100#3E0000000000003A
(14.150254) vcan0 188#000000000000003B
(14.200174) vcan0 100#470000000000003C
(14.200278) vcan0 188#000000000000003D
(14.210154) vcan0 120#070900000000003E
(14.250138) vcan0 100#450000000000003F
(14.250231) vcan0 188#0000000000000040
(14.250239) vcan0 300#5988D15C5B68BE76
(14.280133) vcan0 120#067F000000000042
(14.300129) vcan0 100#4700000000000043
(14.300219) vcan0 188#0000000000000044
(14.350168) vcan0 100#4600000000000045
(14.350249) vcan0 188#0000000000000046
(14.350257) vcan0 120#0623000000000047
(14.400205) vcan0 100#4100000000000048
(14.400450) vcan0 188#0000000000000049
(14.420164) vcan0 120#073600000000004A
(14.450121) vcan0 100#460000000000004B
(14.450200) vcan0 188#000000000000004C
(14.490157) vcan0 120#063600000000004D
(14.500117) vcan0 100#3C0000000000004E
(14.500198) vcan0 188#000000000000004F
(14.500207) vcan0 300#55FA74C219FAD239
(14.550129) vcan0 100#4000000000000051
(14.550212) vcan0 188#0000000000000052
(14.560128) vcan0 120#06D6000000000053
(14.600201) vcan0 100#4500000000000054
(14.600302) vcan0 188#0000000000000055
(14.630146) vcan0 120#067A000000000056
(14.650120) vcan0 100#4600000000000057
(14.650213) vcan0 188#0000000000000058
(14.700207) vcan0 100#4400000000000059
(14.700294) vcan0 188#000000000000005A
(14.700303) vcan0 120#061800000000005B
(14.750123) vcan0 100#430000000000005C
(14.750244) vcan0 188#000000000000005D
(14.750255) vcan0 300#261037D9E606D32F
(14.770138) vcan0 120#06B800000000005F
(14.800106) vcan0 100#4000000000000060
(14.800162) vcan0 188#0000000000000061
(14.840109) vcan0 120#074B000000000062
(14.850102) vcan0 100#3E00000000000063
(14.850165) vcan0 188#0000000000000064
(14.900118) vcan0 100#3D00000000000065
(14.900200) vcan0 188#0000000000000066
(14.910104) vcan0 120#06C8000000000067
(14.950098) vcan0 100#3E00000000000068
(14.950176) vcan0 188#0000000000000069
(14.980109) vcan0 120#06FE00000000006A
(15.000106) vcan0 100#3F0000000000006B
(15.000186) vcan0 188#000000000000006C
(15.000194) vcan0 300#7E2A93322A0061B7
(15.050168) vcan0 100#410000000000006E
(15.050240) vcan0 188#000000000000006F
(15.050271) vcan0 120#05E9000000000070
(15.100099) vcan0 100#4700000000000071
(15.100181) vcan0 188#0000000000000072
(15.120188) vcan0 120#05FB000000000073
(15.150130) vcan0 100#3E00000000000074
(15.150231) vcan0 188#0000000000000075
(15.190110) vcan0 120#05E0000000000076
(15.200110) vcan0 100#4300000000000077
(15.200201) vcan0 188#0000000000000078
(15.250114) vcan0 100#4500000000000079
(15.250186) vcan0 188#000000000000007A
(15.250194) vcan0 300#AD67836055F98346
(15.260120) vcan0 120#06B700000000007C
(15.300118) vcan0 100#410000000000007D
(15.300190) vcan0 188#000000000000007E
(15.330114) vcan0 120#05DD00000000007F
(15.350105) vcan0 100#4100000000000080
(15.350188) vcan0 188#0000000000000081
(15.400154) vcan0 100#4700000000000082
(15.400260) vcan0 188#0000000000000083
(15.400295) vcan0 120#06CC000000000084
(15.450136) vcan0 100#4300000000000085
(15.450226) vcan0 188#0000000000000086
(15.470167) vcan0 120#05E1000000000087
(15.500134) vcan0 100#3D00000000000088
(15.500271) vcan0 188#0000000000000089
(15.500292) vcan0 300#217024BD8A2F92F1
(15.540160) vcan0 120#066200000000008B
(15.550114) vcan0 100#450000000000008C
(15.550201) vcan0 188#000000000000008D
(15.600175) vcan0 100#460000000000008E
(15.600283) vcan0 188#000000000000008F
(15.610235) vcan0 120#074B000000000090
(15.650194) vcan0 100#3D00000000000091
(15.650283) vcan0 188#0000000000000092
(15.680115) vcan0 120#06D6000000000093
(15.700169) vcan0 100#4000000000000094
(15.700268) vcan0 188#0000000000000095
(15.750121) vcan0 100#3D00000000000096
(15.750243) vcan0 188#0000000000000097
(15.750254) vcan0 120#06AC000000000098
(15.750266) vcan0 300#F4775D8D8B2D451A
(15.800115) vcan0 100#450000000000009A
(15.800187) vcan0 188#000000000000009B
(15.820099) vcan0 120#063A00000000009C
(15.851511) vcan0 100#420000000000009D
(15.851586) vcan0 188#000000000000009E
(15.890090) vcan0 120#067200000000009F
(15.900095) vcan0 100#43000000000000A0
(15.900158) vcan0 188#00000000000000A1
(15.950110) vcan0 100#46000000000000A2
(15.950189) vcan0 188#00000000000000A3
(15.960108) vcan0 120#06210000000000A4
(16.000105) vcan0 100#42000000000000A5
(16.000177) vcan0 188#00000000000000A6
(16.000185) vcan0 300#285596B6905C39C4
(16.030108) vcan0 120#06DB0000000000A8
(16.050113) vcan0 100#3E000000000000A9
(16.050197) vcan0 188#00000000000000AA
(16.100122) vcan0 100#40000000000000AB
(16.100223) vcan0 188#00000000000000AC
(16.100234) vcan0 120#062A0000000000AD
(16.150112) vcan0 100#3C000000000000AE
(16.150184) vcan0 188#00000000000000AF
(16.170126) vcan0 120#05E20000000000B0
(16.200146) vcan0 100#41000000000000B1
(16.200251) vcan0 188#00000000000000B2
(16.240177) vcan0 120#07650000000000B3
(16.250154) vcan0 100#44000000000000B4
(16.250242) vcan0 188#00000000000000B5
(16.250255) vcan0 300#55AA504A06305B7C
(16.300116) vcan0 100#3E000000000000B7
(16.300214) vcan0 188#00000000000000B8
(16.310147) vcan0 120#067B0000000000B9
(16.350124) vcan0 100#44000000000000BA
(16.350208) vcan0 188#00000000000000BB
(16.380134) vcan0 120#06A80000000000BC
(16.400170) vcan0 100#40000000000000BD
(16.400287) vcan0 188#00000000000000BE
(16.450128) vcan0 100#3C000000000000BF
(16.450232) vcan0 188#00000000000000C0
(16.450245) vcan0 120#066C0000000000C1
(16.500119) vcan0 100#40000000000000C2
(16.500207) vcan0 188#00000000000000C3
(16.500221) vcan0 300#61D6EDEF97628E26
(16.520127) vcan0 120#06180000000000C5
(16.550122) vcan0 100#42000000000000C6
(16.550246) vcan0 188#00000000000000C7
(16.590150) vcan0 120#06250000000000C8
(16.600151) vcan0 100#3C000000000000C9
(16.600222) vcan0 188#00000000000000CA
(16.650122) vcan0 100#41000000000000CB
(16.650207) vcan0 188#00000000000000CC
(16.660131) vcan0 120#07660000000000CD
(16.700152) vcan0 100#42000000000000CE
(16.700244) vcan0 188#00000000000000CF
(16.730122) vcan0 120#060E0000000000D0
(16.750110) vcan0 100#47000000000000D1
(16.750223) vcan0 188#00000000000000D2
(16.750233) vcan0 300#A6C394A933F2DA8B
(16.800103) vcan0 100#47000000000000D4
(16.800156) vcan0 188#00000000000000D5
(16.800165) vcan0 120#05F30000000000D6
(16.850130) vcan0 100#3C000000000000D7
(16.850213) vcan0 188#00000000000000D8
(16.870118) vcan0 120#06610000000000D9
(16.900111) vcan0 100#41000000000000DA
(16.900194) vcan0 188#00000000000000DB
(16.940116) vcan0 120#06270000000000DC
(16.950130) vcan0 100#41000000000000DD
(16.950229) vcan0 188#00000000000000DE
(17.000100) vcan0 100#44000000000000DF
(17.000199) vcan0 188#00000000000000E0
(17.000208) vcan0 300#0E179164CB47FFD3
(17.010166) vcan0 120#07300000000000E2
(17.050171) vcan0 100#3C000000000000E3
(17.050264) vcan0 188#00000000000000E4
(17.080107) vcan0 120#07570000000000E5
(17.100113) vcan0 100#47000000000000E6
(17.100212) vcan0 188#00000000000000E7
(17.150130) vcan0 100#3F000000000000E8
(17.150215) vcan0 188#00000000000000E9
(17.150225) vcan0 120#06370000000000EA
(17.200108) vcan0 100#40000000000000EB
(17.200206) vcan0 188#00000000000000EC
(17.220109) vcan0 120#06E60000000000ED
(17.250436) vcan0 100#40000000000000EE
(17.250570) vcan0 188#00000000000000EF
(17.250579) vcan0 300#BCCE85A726690407
(17.290156) vcan0 120#060F0000000000F1
(17.300138) vcan0 100#46000000000000F2
(17.300233) vcan0 188#00000000000000F3
(17.350155) vcan0 100#3F000000000000F4
(17.350265) vcan0 188#00000000000000F5
(17.360113) vcan0 120#06B10000000000F6
(17.400153) vcan0 100#3F000000000000F7
(17.400241) vcan0 188#00000000000000F8
(17.430114) vcan0 120#06050000000000F9
(17.450122) vcan0 100#3C000000000000FA
(17.450221) vcan0 188#00000000000000FB
(17.500143) vcan0 100#41000000000000FC
(17.500235) vcan0 188#00000000000000FD
(17.500243) vcan0 120#06430000000000FE
(17.500252) vcan0 300#2D2DF0F43C150565
(17.550154) vcan0 100#3F00000000000000
(17.550263) vcan0 188#0000000000000001
(17.570155) vcan0 120#068E000000000002
(17.600132) vcan0 100#4400000000000003
(17.600244) vcan0 188#0000000000000004
(17.640122) vcan0 120#0642000000000005
(17.650130) vcan0 100#4200000000000006
(17.650222) vcan0 188#0000000000000007
(17.700128) vcan0 100#4300000000000008
(17.700265) vcan0 188#0000000000000009
(17.710112) vcan0 120#062600000000000A
(17.750136) vcan0 100#3D0000000000000B
(17.750245) vcan0 188#000000000000000C
(17.750254) vcan0 300#7AE4BBB380612274
(17.780135) vcan0 120#073600000000000E
(17.800103) vcan0 100#3F0000000000000F
(17.800192) vcan0 188#0000000000000010
(17.850143) vcan0 100#4300000000000011
(17.850251) vcan0 188#0000000000000012
(17.850263) vcan0 120#074A000000000013
(17.900121) vcan0 100#4300000000000014
(17.900218) vcan0 188#0000000000000015
(17.920127) vcan0 120#06A0000000000016
(17.950130) vcan0 100#4000000000000017
(17.950262) vcan0 188#0000000000000018
(17.990126) vcan0 120#05FE000000000019
(18.000127) vcan0 100#450000000000001A
(18.000214) vcan0 188#000000000000001B
(18.000222) vcan0 300#804B5B6EB33C9E84
(18.050132) vcan0 100#410000000000001D
(18.050264) vcan0 188#000000000000001E
(18.060120) vcan0 120#06A600000000001F
(18.100499) vcan0 100#4000000000000020
(18.100595) vcan0 188#0000000000000021
(18.130085) vcan0 120#06CE000000000022
(18.150083) vcan0 100#4500000000000023
(18.150157) vcan0 188#0000000000000024
(18.200113) vcan0 100#4600000000000025
(18.200200) vcan0 188#0000000000000026
(18.200209) vcan0 120#06EF000000000027
(18.250113) vcan0 100#4400000000000028
(18.250218) vcan0 188#0000000000000029
(18.250228) vcan0 300#470BFC8D45A039E3
(18.270113) vcan0 120#074200000000002B
(18.300143) vcan0 100#3C0000000000002C
(18.300254) vcan0 188#000000000000002D
(18.340129) vcan0 120#060300000000002E
(18.350121) vcan0 100#450000000000002F
(18.350233) vcan0 188#0000000000000030
(18.400135) vcan0 100#3C00000000000031
(18.400241) vcan0 188#0000000000000032
(18.410122) vcan0 120#071D000000000033
(18.450134) vcan0 100#4000000000000034
(18.450248) vcan0 188#0000000000000035
(18.480105) vcan0 120#0670000000000036
(18.500105) vcan0 100#4500000000000037
(18.500191) vcan0 188#0000000000000038
(18.500200) vcan0 300#FD15BEADD42FF25E
(18.550113) vcan0 100#3E0000000000003A
(18.550204) vcan0 188#000000000000003B
(18.550217) vcan0 120#066B00000000003C
(18.600217) vcan0 100#3E0000000000003D
(18.600324) vcan0 188#000000000000003E
(18.620245) vcan0 120#061200000000003F
(18.650229) vcan0 100#4300000000000040
(18.650317) vcan0 188#0000000000000041
(18.690175) vcan0 120#0705000000000042
(18.700162) vcan0 100#4100000000000043
(18.700262) vcan0 188#0000000000000044
(18.750128) vcan0 100#3E00000000000045
(18.750213) vcan0 188#0000000000000046
(18.750244) vcan0 300#C83F4515C7668E7F
(18.760134) vcan0 120#065F000000000048
(18.800188) vcan0 100#4700000000000049
(18.800294) vcan0 188#000000000000004A
(18.830122) vcan0 120#062600000000004B
(18.850126) vcan0 100#3E0000000000004C
(18.850230) vcan0 188#000000000000004D
(18.900133) vcan0 100#3F0000000000004E
(18.900225) vcan0 188#000000000000004F
(18.900234) vcan0 120#0618000000000050
(18.950150) vcan0 100#3D00000000000051
(18.950262) vcan0 188#0000000000000052
(18.970139) vcan0 120#060D000000000053
(19.000144) vcan0 100#3E00000000000054
(19.000249) vcan0 188#0000000000000055
(19.000260) vcan0 300#B1B6E30EF1A11436
(19.040136) vcan0 120#0672000000000057
(19.050126) vcan0 100#4500000000000058
(19.050211) vcan0 188#0000000000000059
(19.100150) vcan0 100#3D0000000000005A
(19.100273) vcan0 188#000000000000005B
(19.110199) vcan0 120#068800000000005C
(19.150177) vcan0 100#400000000000005D
(19.150312) vcan0 188#000000000000005E
(19.180106) vcan0 120#05E000000000005F
(19.200130) vcan0 100#3D00000000000060
(19.200282) vcan0 188#0000000000000061
(19.250152) vcan0 100#3F00000000000062
(19.250257) vcan0 188#0000000000000063
(19.250269) vcan0 120#0601000000000064
(19.250282) vcan0 300#222A4F61AF89A647
(19.300111) vcan0 100#4200000000000066
(19.300220) vcan0 188#0000000000000067
(19.320099) vcan0 120#0604000000000068
(19.350120) vcan0 100#3C00000000000069
(19.350203) vcan0 188#000000000000006A
(19.390119) vcan0 120#063B00000000006B
(19.400100) vcan0 100#3F0000000000006C
(19.400170) vcan0 188#000000000000006D
(19.450125) vcan0 100#3E0000000000006E
(19.450203) vcan0 188#000000000000006F
(19.460096) vcan0 120#068E000000000070
(19.500150) vcan0 100#4400000000000071
(19.500235) vcan0 188#0000000000000072
(19.500265) vcan0 300#1AA7CBB405AE58F6
(19.530123) vcan0 120#06E3000000000074
(19.550157) vcan0 100#4200000000000075
(19.550280) vcan0 188#0000000000000076
(19.600218) vcan0 100#4700000000000077
(19.600323) vcan0 188#0000000000000078
(19.600333) vcan0 120#0733000000000079
(19.650144) vcan0 100#470000000000007A
(19.650247) vcan0 188#000000000000007B
(19.670101) vcan0 120#072300000000007C
(19.700105) vcan0 100#3F0000000000007D
(19.700188) vcan0 188#000000000000007E
(19.740131) vcan0 120#069200000000007F
(19.750110) vcan0 100#4500000000000080
(19.750217) vcan0 188#0000000000000081
(19.750227) vcan0 300#8BD42D1A9D542033
(19.800112) vcan0 100#4300000000000083
(19.800202) vcan0 188#0000000000000084
(19.810106) vcan0 120#05F6000000000085
(19.850119) vcan0 100#4100000000000086
(19.850223) vcan0 188#0000000000000087
(19.880107) vcan0 120#0636000000000088
(19.900142) vcan0 100#4100000000000089
(19.900238) vcan0 188#000000000000008A
(19.950112) vcan0 100#410000000000008B
(19.950203) vcan0 188#000000000000008C
(19.950211) vcan0 120#06F500000000008D
(20.000122) vcan0 100#470000000000008E
